!Created with skrf (http://scikit-rf.org).
# GHz S RI R 50.0 
!freq ReS11 ImS11 ReS21 ImS21 ReS12 ImS12 ReS22 ImS22
75.0041666667 -0.0306735001504 0.0173889305443 -0.0471362806857 -0.22556348145 -0.280956059694 0.0823674350977 0.456631392241 0.137873649597
75.0583333333 -0.0207411143929 0.0285499840975 -0.228666245937 -0.00988868065178 -0.0459708683193 0.313055336475 0.26600754261 -0.141453608871
75.1125 -0.00799981877208 0.0335632711649 -0.0815464481711 0.20539163053 -0.330800324678 -1.16809785366 0.803695857525 -0.976744771004
75.1666666667 0.00553969619796 0.0334056392312 0.12791608274 0.173397958279 0.231363534927 0.0548858717084 0.451748043299 -0.0796147957444
75.2208333333 0.0166861992329 0.0281528197229 0.211713641882 -0.0139968013391 0.329265445471 0.867331087589 0.876146018505 0.293933719397
75.275 0.024860702455 0.019301014021 0.0467989183962 -0.204835221171 0.404456883669 1.57840108871 -0.726272165775 -0.0523398332298
75.3291666667 0.0289777815342 0.00868193246424 -0.19088421762 -0.0756991878152 0.171072825789 0.0143878646195 0.0950185805559 0.183398157358
75.3833333333 0.0288516283035 -0.00202121119946 -0.135229229927 0.148999676108 0.29094183445 0.126466557384 -0.0204243864864 0.944366931915
75.4375 0.0247539058328 -0.0113392574713 0.0509675890207 0.188929572701 -0.23696346581 0.190275013447 0.377646178007 0.257976680994
75.4916666667 0.0180663131177 -0.0175114423037 0.187381878495 0.0312906615436 0.839745461941 0.278505325317 0.835184037685 -0.137515217066
75.5458333333 0.0111525561661 -0.0209776926786 0.0617213100195 -0.182556018233 0.248549580574 -0.261957168579 0.0688707903028 0.0968397185206
75.6 0.00366131542251 -0.0221759714186 -0.168210655451 -0.0870207697153 -0.0876949056983 -0.298771053553 0.265711218119 -0.457333892584
75.6541666667 -0.00287269870751 -0.0212197545916 -0.153228566051 0.0987704619765 -0.683945477009 -0.844238877296 -1.66520547867 6.46403169632
75.7083333333 -0.00812841951847 -0.0189437437803 -0.01651863195 0.183107793331 0.0982318148017 0.756025314331 0.134016796947 -0.39315366745
75.7625 -0.0130722224712 -0.015915941447 0.163098618388 0.0866809859872 0.132052779198 0.504151344299 0.204513177276 -0.791198432446
75.8166666667 -0.0170111227781 -0.0114106899127 0.111815556884 -0.146476656199 -0.602053761482 -0.22513538599 -0.60617005825 0.505146324635
75.8708333333 -0.0201377905905 -0.00593864312395 -0.10029412806 -0.153638243675 0.20902377367 -0.29507702589 -0.253564566374 -0.00121589843184
75.925 -0.0211702529341 0.000364369858289 -0.185953140259 -0.000669149099849 0.546913504601 -0.10421217978 0.87706553936 0.722295224667
75.9791666667 -0.0201921556145 0.00624463940039 -0.0894313156605 0.157299250364 0.211732044816 0.519706487656 -0.81644231081 -0.0754504427314
76.0333333333 -0.0185057539493 0.0129799284041 0.126723393798 0.12749864161 -1.7011641264 -0.726843655109 -0.724433124065 0.0665903314948
76.0875 -0.0133889550343 0.0193439088762 0.157070159912 -0.0883712619543 -2.77118992805 -0.861900866032 -0.974005699158 2.81129050255
76.1416666667 -0.00577998626977 0.0235546734184 0.00193560158368 -0.1809925735 -1.33428072929 0.568233907223 -0.750700831413 -0.71740180254
76.1958333333 0.00282540451735 0.0240948013961 -0.144915670156 -0.106667846441 0.0107129998505 0.790866613388 -0.772919416428 -0.599545180798
76.25 0.0101522216573 0.021643448621 -0.161313518882 0.087993837893 -0.236962169409 0.689331769943 -0.35994040966 0.756780922413
76.3041666667 0.0175049975514 0.0168657880276 0.0441080406308 0.177953839302 -1.10811638832 0.188983440399 0.657674610615 -0.519713699818
76.3583333333 0.0222492031753 0.00907159410417 0.182244449854 0.0214746613055 -0.360014528036 -0.0012584393844 -0.0501637905836 0.266463547945
76.4125 0.023393208161 0.00064705911791 0.11235012114 -0.139937624335 -0.319972842932 -0.0738904848695 -0.402638107538 -0.237118035555
76.4666666667 0.0220840442926 -0.00750711420551 -0.0674716234207 -0.167327210307 -0.0279089659452 1.0944018364 -0.332794576883 1.53150212765
76.5208333333 0.0177514627576 -0.0139889549464 -0.179625540972 0.014427437447 0.221407204866 0.324067115784 -0.375634461641 -0.0910067260265
76.575 0.0111525440589 -0.0191542841494 -0.0240751989186 0.17741060257 -2.31457519531 -1.41881048679 -1.34967184067 -1.49854826927
76.6291666667 0.00341295171529 -0.0205808151513 0.156777814031 0.0807939767838 -0.508578002453 -0.226710617542 -0.207887262106 0.50499600172
76.6833333333 -0.00353187229484 -0.0191758833826 0.141927555203 -0.102469302714 0.392549067736 -1.42419552803 0.0978422835469 0.98865622282
76.7375 -0.00881717819721 -0.0156441088766 -0.0352546572685 -0.17525729537 -1.48329389095 -0.608723640442 -0.478306204081 0.233475089073
76.7916666667 -0.0123705063015 -0.0110290935263 -0.179374650121 -0.0232278686017 0.443791717291 -0.0986828058958 0.155195847154 0.246712729335
76.8458333333 -0.0145611865446 -0.00619345624 -0.0794201791286 0.16043138504 1.77391886711 0.966990172863 -0.208626940846 2.09316158295
76.9 -0.0144314393401 -0.0015529821394 0.116439603269 0.130923986435 0.154188588262 -1.11827802658 -0.452385097742 -0.535743713379
76.9541666667 -0.0135082695633 0.00272617978044 0.164744436741 -0.0510112941265 0.174710392952 0.332717567682 -0.32227614522 -0.305770635605
77.0083333333 -0.0119289075956 0.00609502568841 0.0174897871912 -0.169955670834 0.171177431941 -1.36168706417 3.13789629936 -1.50379610062
77.0625 -0.00940071512014 0.00923763401806 -0.145885005593 -0.0786537602544 0.321609824896 -0.746782004833 2.86211919785 -1.57253205776
77.1166666667 -0.00598735967651 0.0116548072547 -0.0387219116092 -0.164755180478 0.0984612479806 -1.00572323799 -0.0880650281906 -0.709687113762
77.1708333333 -0.00229691201821 0.0123147321865 -0.161748200655 -0.0532376915216 0.185415238142 -0.184946909547 0.0923964008689 -0.213675916195
77.225 0.00119929015636 0.0120970420539 -0.121168598533 0.112727716565 -0.0822906270623 -1.51156580448 0.936234891415 -0.749344229698
77.2791666667 0.00426634727046 0.0108871366829 0.0525641217828 0.15723195672 -1.49092030525 0.876247465611 -0.0793229341507 0.839279055595
77.3333333333 0.00697825523093 0.00956664141268 0.165343463421 0.00859914533794 0.635797142982 0.322052806616 0.38142183423 -0.784773766994
77.3875 0.00968847796321 0.00773023860529 0.0825848951936 -0.141542702913 0.569860219955 0.137803971767 -0.239894837141 -0.0315519571304
77.4416666667 0.0125072710216 0.00474354252219 -0.0820115655661 -0.144981890917 1.60348844528 -0.518709123135 0.465661764145 -1.38412642479
77.4958333333 0.0140123879537 -9.85814986052e-05 -0.164298534393 0.00656057661399 0.290346711874 0.516743540764 0.267790287733 0.104560412467
77.55 0.0133692696691 -0.00533329881728 -0.0582446455956 0.156065955758 0.210167735815 -0.252654999495 0.305601149797 0.109272629023
77.6041666667 0.0102646751329 -0.00997297186404 0.121189206839 0.116591632366 -0.414767801762 0.593074738979 0.200377836823 0.110764801502
77.6583333333 0.00535592110828 -0.0128244329244 0.163198620081 -0.0422621555626 -0.199282810092 -0.50101852417 0.081356972456 -0.959939718246
77.7125 0.000140942443977 -0.0132493376732 0.0551048107445 -0.156166359782 -0.897704064846 -0.0334381982684 0.717462837696 -0.434899717569
77.7666666667 -0.00409285444766 -0.0118091637269 -0.109356448054 -0.126792579889 -0.490415722132 -0.803153514862 -0.939764022827 0.0938700959086
77.8208333333 -0.00723564298823 -0.00900969374925 -0.161789759994 0.0441177710891 0.751440942287 -0.115658335388 0.793553113937 0.0667155385017
77.875 -0.00918309669942 -0.00597932329401 -0.0482979118824 0.16369099915 -0.00973450858146 0.110083453357 0.419753193855 -0.398384988308
77.9291666667 -0.0103668970987 -0.00272533833049 0.100660763681 0.138771027327 -0.223758846521 -0.437679380178 -0.245728328824 -0.349065601826
77.9833333333 -0.0104255564511 0.000680284691043 0.169917434454 -0.00250087003224 0.112704738975 -0.578421890736 0.0521257333457 0.0694903880358
78.0375 -0.00931397080421 0.00428192969412 0.0791789591312 -0.152034237981 0.520593225956 -0.133163914084 0.56382393837 0.933857500553
78.0916666667 -0.00667515723035 0.00711200805381 -0.0833571925759 -0.149675086141 0.0632770061493 -0.153280466795 -0.130301475525 0.0211777295917
78.1458333333 -0.00336114806123 0.00816263724118 -0.174671933055 -0.0251982677728 0.227687478065 0.211998462677 -0.728387951851 0.333911895752
78.2 -0.000475726032164 0.00767194200307 -0.117477923632 0.136672064662 -0.633333384991 0.205985695124 -0.37401458621 0.90750092268
78.2541666667 0.0012077644933 0.00644706375897 0.0766358971596 0.160950094461 -0.0204877816141 -0.868159592152 -0.723340511322 1.83912193775
78.3083333333 0.00199317722581 0.0057196081616 0.181903734803 0.00195894995704 -0.665222942829 1.00518763065 1.79153728485 -0.142985478044
78.3625 0.00288730557077 0.005497766193 0.104773052037 -0.150622099638 -0.689332425594 -2.38680291176 1.1743761301 0.203977361321
78.4166666667 0.00414493959397 0.00526643544436 -0.0495186038315 -0.176362231374 -0.939040362835 -0.668574273586 -0.51926112175 0.243759617209
78.4708333333 0.00601034983993 0.00467992061749 -0.185594975948 -0.0429799295962 -0.195319086313 -0.168556019664 0.503923952579 0.00829951371998
78.525 0.00811015162617 0.00285613583401 -0.104594700038 0.169005274773 -0.112131141126 -0.371893852949 0.741440534592 -0.672333180904
78.5791666667 0.00926577672362 -0.000148676437675 0.110530205071 0.162437736988 0.372571527958 0.0753970295191 0.091818831861 0.11590141803
78.6333333333 0.00910242367536 -0.00368109857664 0.196795374155 0.00547190336511 0.138895615935 0.693688511848 0.339573711157 -2.57789969444
78.6875 0.00734541285783 -0.00664583733305 0.102587893605 -0.154119625688 -0.12070903182 -0.553475797176 0.479452043772 -0.734328448772
78.7416666667 0.00499479984865 -0.00880454480648 -0.0980614721775 -0.15721976757 -0.165352493525 0.266100138426 -0.273022383451 -0.0247672367841
78.7958333333 0.00216717994772 -0.0105936219916 -0.182136759162 0.0470434054732 0.0199884846807 -0.111374095082 -0.434261769056 -0.496359080076
78.85 -0.00141495489515 -0.0116401342675 -0.0453432239592 0.182169556618 -4.91999530792 2.94652819633 -0.175861462951 1.36717474461
78.9041666667 -0.00620715832338 -0.0112120881677 0.125254407525 0.14510370791 0.173181533813 0.0844250768423 0.705523908138 -0.292643725872
78.9583333333 -0.0104595636949 -0.00834932550788 0.189455702901 -0.0365586653352 -0.665593385696 -0.0111369993538 0.0433627068996 -0.343370437622
79.0125 -0.013447124511 -0.00359048391692 0.0472966507077 -0.185654401779 1.05906891823 0.0546157434583 0.825713157654 -0.478375911713
79.0666666667 -0.0137091707438 0.00234554521739 -0.13758918643 -0.133083850145 2.86169552803 2.84299707413 2.716578722 -1.37799179554
79.1208333333 -0.0108661595732 0.00732080824673 -0.189284980297 0.0304368752986 -0.484197854996 -0.185902535915 -0.462446540594 0.170410707593
79.175 -0.0066171749495 0.00977853219956 -0.0830214545131 0.173825860023 -0.619602382183 -1.1176173687 -0.341268956661 -0.537204325199
79.2291666667 -0.00244812737219 0.0103221479803 0.108521558344 0.158383473754 1.27875709534 0.401639789343 0.431409239769 0.68272203207
79.2833333333 0.000775097927544 0.00962281785905 0.189505517483 -0.00749327009544 0.801893949509 -0.505986511707 1.33717191219 -2.72448134422
79.3375 0.00309456093237 0.00853927433491 0.109627433121 -0.162397369742 0.10751888901 0.542825818062 0.241118371487 -0.337807714939
79.3916666667 0.00590558350086 0.00666111428291 -0.0856257230043 -0.206182658672 0.0157695319504 -0.5522133708 0.388503581285 -0.704084277153
79.4458333333 0.00678986636922 0.00417787628248 -0.221360146999 0.0146457403898 0.460263222456 1.27468311787 0.708922684193 -2.06775927544
79.5 0.00679372157902 0.00221664691344 -0.0816519334912 0.188481196761 0.729809522629 1.36844491959 -0.733261287212 1.63210916519
79.5541666667 0.0065743746236 0.00093196349917 0.0957812741399 0.17586196959 -5.27336597443 2.75575947762 -2.10328221321 -1.70642662048
79.6083333333 0.00632079970092 -0.000531285302714 0.198937743902 0.031013276428 -0.410409361124 -0.14188888669 0.320353120565 0.0840886831284
79.6625 0.00573678640649 -0.0016816384159 0.137744709849 -0.151583522558 -0.386615276337 -0.46557328105 0.818060219288 1.15127015114
79.7166666667 0.00526370480657 -0.00240525789559 -0.0779371783137 -0.190559014678 -0.255770385265 0.223050951958 0.192521765828 -0.449336409569
79.7708333333 0.00517988391221 -0.00328957964666 -0.205804154277 0.00079099019058 -0.286242872477 0.211303517222 0.198515027761 0.134808793664
79.825 0.00519383419305 -0.0046757934615 -0.0818152949214 0.188579395413 0.529964387417 -0.0724678188562 0.147926583886 0.0975195020437
79.8791666667 0.00460064597428 -0.00674568070099 0.13333876431 0.159451261163 0.123140282929 -0.668897867203 1.35194170475 0.154888212681
79.9333333333 0.00297050131485 -0.00908371154219 0.211763873696 -0.0356875881553 1.20907247066 1.48479485512 0.736454129219 0.440727859735
79.9875 -0.000419304094976 -0.011082585901 0.0942800492048 -0.187537878752 0.118245460093 0.711990892887 -0.220894604921 -1.48306357861
80.0416666667 -0.00570711493492 -0.0108774993569 -0.101696155965 -0.178221836686 0.997779488564 0.92109143734 0.561871826649 0.982672274113
80.0958333333 -0.00927707273513 -0.00873784348369 -0.199729770422 0.00216483720578 -0.0770563855767 -0.146167352796 -0.358602583408 -0.752612113953
80.15 -0.011571187526 -0.00540089979768 -0.100503005087 0.167656108737 1.48671591282 -0.299954295158 0.0528083443642 -0.371837168932
80.2041666667 -0.0127807576209 -0.00199370714836 0.0769966095686 0.180637583137 0.145292758942 -0.028486052528 -0.0495739467442 0.711827754974
80.2583333333 -0.0134830949828 0.0028301931452 0.193218871951 0.0211571678519 -0.994421839714 1.29009652138 -1.51193070412 0.150840684772
80.3125 -0.012094926089 0.00785027537495 0.0932162478566 -0.17960961163 0.612708985806 0.400033503771 0.324336230755 0.0516365841031
80.3666666667 -0.00822347123176 0.0120261153206 -0.108155041933 -0.161768779159 -0.413841515779 0.0901546552777 -0.23654808104 -0.796235561371
80.4208333333 -0.00316147273406 0.0138811748475 -0.194095134735 0.0101690627635 -0.225727826357 0.039245814085 0.464188277721 -0.0519105419517
80.475 0.00224910699762 0.0142620354891 -0.091031730175 0.170376032591 -0.575496196747 0.413944154978 -0.421388506889 0.331530511379
80.5291666667 0.00751695875078 0.011721177958 0.129302680492 0.143146708608 -0.546742081642 2.13154506683 1.51285791397 -0.892465174198
80.5833333333 0.0110519165173 0.00719994213432 0.177570730448 -0.084716014564 -0.268572717905 -0.107752382755 -0.308337837458 -0.942596554756
80.6375 0.0117432028055 0.00237020105124 0.000773696112446 -0.190562844276 1.06255149841 0.16130451858 -0.542600810528 -0.901596009731
80.6916666667 0.0107614193112 -0.00139345298521 -0.148942217231 -0.110115498304 -1.69687390327 -2.14344263077 1.18184530735 -3.4784989357
80.7458333333 0.00872408412397 -0.00433974061161 -0.171090841293 0.0719070360065 1.53781867027 -0.148930281401 0.0503844097257 0.00279881805182
80.8 0.00677749048918 -0.00545480335131 0.00122345227282 0.19006934762 0.186412543058 -0.195259258151 -0.794829010963 -0.360451996326
80.8541666667 0.0048782392405 -0.00649649603292 0.177426367998 0.0599678866565 -0.295552521944 0.15030246973 -0.452957361937 0.411000341177
80.9083333333 0.00294988066889 -0.0071175401099 0.141511425376 -0.128155365586 0.785560965538 2.17157053947 -0.0411618538201 0.728768467903
80.9625 0.00108304806054 -0.00708303926513 -0.017900666222 -0.185959786177 1.02749526501 1.58456158638 5.95279359818 5.08002710342
81.0166666667 -0.000491328770295 -0.00660905754194 -0.169805958867 -0.0858217775822 0.172794669867 0.275125741959 -0.333950191736 0.0289554707706
81.0708333333 -0.00160870037507 -0.00600035814568 -0.151872187853 0.117770686746 0.763731658459 0.499398946762 0.287581294775 0.0979174748063
81.125 -0.0025726845488 -0.00544521957636 0.0339077562094 0.192254915833 -2.97408413887 1.33547103405 1.64386224747 0.672917246819
81.1791666667 -0.00322048156522 -0.00560278492048 0.182882577181 0.0738839507103 -0.187162697315 0.610126137733 0.107630416751 0.172608211637
81.2333333333 -0.00457419874147 -0.00569296907634 0.165586993098 -0.104668721557 -0.681124389172 -0.498253315687 0.137512564659 -0.603652238846
81.2875 -0.00670509552583 -0.0051076230593 -0.000235383093241 -0.196796044707 2.83870005608 1.06747305393 1.62928509712 -0.949248015881
81.3416666667 -0.00841159000993 -0.00334271416068 -0.0783350840211 0.177582517266 -0.241656854749 0.426297426224 0.756432950497 0.171952754259
81.3958333333 -0.010530767031 -0.00110002967995 0.0336645618081 0.197668895125 -0.480007171631 1.72047519684 -0.960717320442 -1.22110652924
81.45 -0.0121932262555 0.0027247054968 0.14101536572 0.140407323837 1.17632031441 0.700250208378 0.65854537487 -1.98760950565
81.5041666667 -0.0110109001398 0.00832351669669 0.198559820652 0.0297960080206 0.697475731373 0.00157528126147 0.287432610989 -0.349213927984
81.5583333333 -0.00689274864271 0.0121202189475 0.179565086961 -0.085116609931 0.504423677921 -0.41845574975 0.808599531651 0.232408136129
81.6125 -0.00218290067278 0.0134533280507 0.106719493866 -0.17005123198 1.11247253418 0.733268857002 0.304252654314 0.230423226953
81.6666666667 0.00236459565349 0.0140338186175 -0.00542185595259 -0.206357166171 0.0080360295251 -0.31199669838 0.670168817043 -0.411247730255
81.7208333333 0.00826255325228 0.0128103876486 -0.114265091717 -0.170113831758 -3.4646525383 -1.27121460438 2.40869927406 1.27274239063
81.775 0.0129049085081 0.00858308561146 -0.192894279957 -0.0776526108384 0.336038708687 0.216003090143 -0.112878739834 0.384743571281
81.8291666667 0.0141351455823 0.00348493480124 -0.201303958893 0.0393446236849 1.17949795723 1.32644641399 -0.192565113306 0.0986744761467
81.8833333333 0.0138071011752 -0.00153347209562 -0.147214233875 0.147066965699 0.166690826416 -0.644078433514 0.400343060493 0.38289436698
81.9375 0.0113362437114 -0.00664379354566 -0.0400992110372 0.201940894127 0.212507665157 0.334712952375 0.158198431134 -1.33843183517
81.9916666667 0.00710573606193 -0.00974419340491 0.0804322734475 0.191469416022 -0.423979818821 0.063318349421 1.3143184185 0.326781004667
82.0458333333 0.00283303577453 -0.0104750301689 0.180960401893 0.11170039326 -0.669653654099 0.976445376873 -0.252520143986 -0.0650187656283
82.1 -0.000416579889134 -0.00957465264946 0.210521712899 -0.023774093017 0.235444381833 -0.594284176826 0.120396979153 -0.284351795912
82.1541666667 -0.00333416229114 -0.00789581425488 0.155900776386 -0.151976048946 -0.121673941612 -1.89835608006 1.19876384735 0.832531988621
82.2083333333 -0.00488236360252 -0.00506573542953 0.0414405502379 -0.217067465186 -0.00577776506543 -0.358586460352 0.138492494822 -0.018941020593
82.2625 -0.00453276839107 -0.00271244440228 -0.0613623037934 -0.202784135938 1.1598315239 -0.610455989838 0.305300176144 -1.00581133366
82.3166666667 -0.00407557422295 -0.00157026434317 -0.156059086323 -0.154119312763 -0.351378440857 0.0453427433968 0.071190468967 -0.707911968231
82.3708333333 -0.00341483158991 -0.000999642652459 -0.218851581216 -0.0330583378673 1.72742319107 -1.7583334446 1.3131326437 -2.56044173241
82.425 -0.00286941346712 -0.000957723183092 -0.190536797047 0.111547544599 -0.697078227997 0.345536798239 -0.261875957251 -1.5288220644
82.4791666667 -0.00260708481073 -0.00155964063015 -0.0885379463434 0.201051577926 0.0925950706005 -0.597515881062 0.797806322575 0.188796103001
82.5333333333 -0.00416706129909 -0.00205865362659 0.0264472533017 0.216254279017 0.0460323616862 0.426499843597 -0.786650955677 0.103894338012
82.5875 -0.00572140095755 -0.000853303412441 0.133302971721 0.175106585026 -1.18553161621 0.19538064301 -0.63757622242 0.482035130262
82.6416666667 -0.00640151975676 0.00044181002886 0.203235402703 0.0777984261513 0.475796759129 0.429503887892 0.287112742662 -0.610714793205
82.6958333333 -0.00785998161882 0.0030583627522 0.208994731307 -0.0361449085176 0.848822116852 0.00871620420367 0.720927238464 0.71765255928
