!Created with skrf (http://scikit-rf.org).
# GHz S RI R 50.0 
!freq ReS11 ImS11 ReS21 ImS21 ReS12 ImS12 ReS22 ImS22
60.0 -1.76026964188 -0.146227553487 -1.30565404106e-05 -1.41098144013e-05 0.356350304477 0.418272668998 0.516677354608 -0.951517944749
60.0416666667 -1.63894844055 0.779623746872 4.71038492833e-06 5.24733650309e-06 0.0366474656789 -0.951651844898 0.808952613302 -0.484426664466
60.0833333333 -0.978954195976 1.37766551971 -1.11009821921e-05 4.56766065327e-06 0.855119808456 0.490549479029 0.0885988331855 -0.712130939318
60.125 -0.247550114989 1.60421323776 6.41828319203e-06 5.64923220736e-06 -0.189747603195 -0.806782931224 0.580780124591 -0.521884948196
60.1666666667 0.458552151918 1.53605866432 7.92634182289e-06 -7.64568630984e-06 -0.426236545756 -0.263793943922 0.553664662151 -0.289696517162
60.2083333333 1.12786841393 1.17710733414 1.69578368059e-06 1.17296131066e-05 0.910876366669 -0.185772681732 0.763985862786 -0.780472024696
60.25 1.53937745094 0.452292889357 8.81532923813e-06 1.46956756453e-06 0.34522017302 -0.099224489504 0.16026392202 -0.256528934323
60.2916666667 1.55691385269 -0.334787666798 -1.19833048302e-05 8.6135833044e-06 -0.633235213728 0.258160967367 -0.169134517598 -0.136868162195
60.3333333333 1.21579265594 -1.13869822025 -1.12142442958e-05 1.4330275917e-06 0.1165364243 0.752380158416 0.787543278934 0.105893910222
60.375 0.405520260334 -1.52920114994 5.96222344029e-06 1.32953791763e-05 0.458410582662 -0.896827870735 0.432797159385 0.718644994915
60.4166666667 -0.401066482067 -1.49707221985 -2.63602169071e-06 -1.24983648675e-06 0.282757373695 -0.573879075792 -0.844082173076 0.966882444278
60.4583333333 -1.07912766933 -1.12437462807 -5.10672043674e-06 4.97399923916e-06 -0.158063437395 -0.606035267086 -0.470948207576 -0.077429911379
60.5 -1.45639812946 -0.52186870575 7.96237964096e-06 -2.10698294723e-06 -0.056086020581 0.210753204871 0.119730856913 0.0166684881693
60.5416666667 -1.58492052555 0.200300067663 -1.13327723739e-05 -9.01249131857e-06 -0.429732714811 -0.218781351172 0.276858697912 -0.493133417525
60.5833333333 -1.45153701305 0.924466311932 -3.27947736878e-06 -3.33169623445e-07 0.286224975316 -0.619576753795 -0.287912408945 0.937066017106
60.625 -0.778592824936 1.66211640835 -4.13470701233e-07 -3.08063079046e-07 -0.655391258724 0.538709682072 0.877068032589 -0.503665218001
60.6666666667 0.227567687631 1.801476717 -6.03038688496e-06 4.0282648115e-06 0.219052519785 -0.192042866619 -0.0931774813642 -0.948560759126
60.7083333333 0.996965050697 1.45784854889 -2.79045089258e-08 -2.79743153442e-06 0.630967165038 -0.775708157552 -0.190874005803 -0.0197439484023
60.75 1.61380553246 0.851038396358 -3.91660250898e-06 9.90913486021e-06 -0.598646534687 -0.125452262644 -0.37556040443 0.99255125969
60.7916666667 1.74537408352 -0.0974840596318 1.29196641865e-05 5.29385761183e-06 0.658451070892 -0.356137760426 0.736485708569 0.0183458844661
60.8333333333 1.47570288181 -0.834909319878 -4.70176382805e-06 1.20245022117e-06 -0.786466972239 0.624533682685 0.765971372795 0.155158318634
60.875 0.897809803486 -1.38051569462 -9.26386928768e-06 1.74810270437e-06 0.384301622068 0.473636051237 0.702715284973 0.468806555909
60.9166666667 0.128312915564 -1.5959495306 -1.26883232952e-05 -6.73385375194e-06 0.864810670531 0.267034336633 0.626767753239 -0.0667444638359
60.9583333333 -0.529875993729 -1.47242641449 3.16902446684e-06 -3.44681711795e-06 0.75390999907 0.943746282483 -0.792894670832 -0.0574022488592
61.0 -1.14369571209 -1.19742548466 -6.73852036925e-06 -1.48242643263e-05 -0.340896286515 0.0368037991991 -0.275567471471 -0.517666771315
61.0416666667 -1.5973675251 -0.571068108082 -1.18929918358e-07 8.19442448119e-07 -0.00566424467376 -0.81682266796 0.383968191267 0.937795131066
61.0833333333 -1.68742763996 0.116422764957 -1.62205269589e-05 -5.04978333993e-06 -0.273203112746 0.721602381216 -0.443023543295 -0.36690977582
61.125 -1.46758532524 0.809107005596 1.2417293874e-05 -7.37821073926e-06 0.0192400649741 -0.0991993376768 0.0135990046444 0.096197320897
61.1666666667 -0.931683719158 1.37026655674 -1.60430863616e-05 -1.51052299771e-05 -0.459842216471 0.898765306359 -0.80727862193 -0.303288461339
61.2083333333 -0.150214061141 1.66305685043 1.32067716549e-05 -1.67097311987e-06 -0.157196934114 0.309447084549 -0.943951833251 0.332730279655
61.25 0.777830958366 1.59032022953 4.82431642013e-06 -1.10239552669e-05 0.525687548035 -0.952237996253 0.377410100614 0.836289552368
61.2916666667 1.48170495033 1.09009003639 1.46350866999e-05 -3.85102566725e-06 0.171412344104 -0.662526746293 0.372455679495 -0.122257619265
61.3333333333 1.79256355762 0.350722968578 -9.30153987611e-07 1.58537761763e-06 0.279453409549 0.240700896765 -0.73115607102 -0.8650431127
61.375 1.73273849487 -0.428078979254 2.87528905574e-06 9.36164070708e-08 0.00589968172292 -0.850853728608 -0.514761594704 -0.541706338472
61.4166666667 1.29408967495 -1.12182676792 1.44882969835e-05 -5.41844474355e-06 -0.339312702707 -0.827376802496 -0.864815663955 -0.539394411607
61.4583333333 0.597576260567 -1.53917312622 -5.80724827159e-06 -3.98696965931e-06 0.984920366875 0.309184230938 0.207308156375 0.912000778262
61.5 -0.153033688664 -1.54677844048 -4.44017223344e-06 2.4369876428e-07 -0.557640175376 0.242720632403 -0.035305622529 0.122199513451
61.5416666667 -0.805883169174 -1.30220460892 1.52972086198e-06 7.14338648322e-06 -0.0636923405219 -0.0565302768398 -0.347242642533 -0.688957397796
61.5833333333 -1.3011200428 -0.783448159695 9.18936223115e-07 1.18808775369e-05 0.782560052075 0.936723108956 -0.254510730577 0.159034185469
61.625 -1.50923037529 -0.151883468032 6.50809170111e-06 1.63360584793e-06 0.303528144153 -0.354271645972 -0.873380358844 0.613401850085
61.6666666667 -1.4343392849 0.5355296731 -9.29756606638e-06 -6.68832944939e-06 0.367525385652 -0.148039294862 0.390656458257 -0.627495352512
61.7083333333 -1.07043921947 1.17662489414 -4.36891832578e-06 4.21113554694e-06 0.560684439014 -0.892911809687 0.691689583364 0.76160333661
61.75 -0.433888137341 1.57163929939 4.12484132539e-06 2.12703275793e-06 -0.139935984555 -0.0656949362874 -0.736071325863 0.281851416497
61.7916666667 0.377924561501 1.62368106842 4.87463580612e-07 -7.92705213826e-06 -0.210852509701 0.802554853834 0.451620277657 -0.656467488269
61.8333333333 1.20663845539 1.36773574352 2.21463756134e-06 1.94757594727e-05 -0.999147791778 0.63262878059 -0.86358922591 0.698532333358
61.875 1.70776391029 0.691688001156 1.3911435417e-05 -7.25215613784e-07 0.13101090519 0.231872176341 0.284259940527 0.906160091204
61.9166666667 1.80196607113 -0.188969120383 1.10357177618e-06 1.24184443848e-05 0.287735734369 -0.211337208326 -0.279806008475 0.671095782719
61.9583333333 1.44904530048 -1.00806283951 3.5643265619e-06 1.17314257295e-05 -0.570149773167 -0.468268559727 -0.869660763436 -0.987445209483
62.0 0.728966653347 -1.51078784466 6.82674453856e-06 7.41409030525e-06 -0.0775232077218 0.306295677392 -0.752424713947 -0.68835592322
62.0416666667 -0.0210775285959 -1.59699571133 2.3471059194e-06 5.01383647133e-06 0.462921491632 -0.755250073209 -0.995849738325 0.573580472351
62.0833333333 -0.740529000759 -1.39934909344 -2.47725938607e-06 -6.81171650285e-06 -0.262598471701 -0.458807857978 0.680661504284 -0.753631648047
62.125 -1.41368961334 -0.805837333202 1.25964334075e-06 1.82519324881e-05 0.564364929784 -0.999233992385 0.970993116873 -0.734039018147
62.1666666667 -1.61443960667 -0.0900189504027 2.84611542156e-06 4.43201406597e-06 -0.179709366437 -0.966758123098 -0.500353363714 0.624657877235
62.2083333333 -1.52444517612 0.598033905029 -2.90911543743e-06 1.41231691941e-06 -0.471831587736 0.175816939947 0.970746898482 0.0553936422947
62.25 -1.15146279335 1.21584713459 2.67848395197e-06 1.74943704678e-06 0.748726090313 0.694191518685 -0.521362868995 0.199226671849
62.2916666667 -0.534892618656 1.60244691372 2.95034192277e-06 -1.09974087081e-06 -0.746145333995 -0.0756461685114 0.0335821360018 0.443394888338
62.3333333333 0.223637282848 1.773406744 -1.70121529663e-05 8.43526095196e-07 0.67048740661 0.131038977054 -0.99997105006 0.691493726806
62.375 1.11240816116 1.51441991329 4.22235780206e-06 1.05437384263e-05 -0.521397243246 0.743213585744 -0.366557368509 0.955992150997
62.4166666667 1.74106764793 0.816099822521 -1.01033288047e-06 1.89454681276e-06 0.968360695697 -0.122328934323 0.380118837205 0.369731012111
62.4583333333 1.99351716042 -0.0993418619037 1.31427086671e-05 6.10622748809e-07 0.175797285393 -0.204189057134 -0.626669684108 0.950182858111
62.5 1.66435372829 -1.0741122961 -1.15890006782e-05 7.2554757935e-06 0.55638414726 0.0803953275574 0.0656360986223 -0.165389169722
62.5416666667 0.914353966713 -1.67221093178 -7.28048507881e-06 2.32372167375e-05 0.0499636996924 -0.545624607959 0.602586179239 -0.0913939093288
62.5833333333 0.042862739414 -1.85825955868 7.80893788033e-06 9.66598236118e-06 0.539109636422 -0.253008042731 0.743392660371 0.984583017832
62.625 -0.80602234602 -1.61745452881 -1.46689592384e-06 -1.13523865366e-05 -0.6327679509 0.178032739791 -0.0204638634891 0.293290429707
62.6666666667 -1.37799143791 -1.05328547955 -2.2161323443e-07 -4.85289274366e-06 -0.654896969307 -0.778242815012 0.847719652192 -0.351870431493
62.7083333333 -1.61777949333 -0.3600435853 6.20560285824e-06 -1.67745486124e-06 -0.436918324633 0.624887935626 0.150482668082 0.471372914843
62.75 -1.54973614216 0.295022159815 -4.60393664525e-07 -2.87662055598e-06 0.890509111701 -0.927931396063 0.757931176004 -0.133841150457
62.7916666667 -1.23381078243 0.89132797718 7.90463946032e-06 -1.35227101055e-05 0.520939825461 0.151323529383 0.596415853097 0.807933400903
62.8333333333 -0.738693416119 1.43629646301 -1.51288452344e-06 6.28730003882e-06 0.451432732091 0.0320152595155 0.160536471951 0.296658677467
62.875 -0.03875778988 1.64428925514 6.36377262708e-06 -1.74291358235e-06 -0.71046534245 -0.165246264319 -0.636730250653 0.594980406924
62.9166666667 0.741371154785 1.58580768108 1.64427362392e-07 1.00367542473e-05 0.311764687786 0.218580491893 -0.122497526177 -0.432140393622
62.9583333333 1.39507043362 1.12703752518 -1.30227761019e-06 4.98650342706e-06 0.631654574805 -0.39289042333 -0.0718510187495 0.262168375594
63.0 1.78577387333 0.396496355534 -2.57074020737e-06 -2.65572225544e-06 0.25003132607 0.641978070713 0.616863730989 -0.0995555270676
63.0416666667 1.73184919357 -0.50420075655 -1.31730821522e-05 -9.02486681298e-06 -0.213263606963 -0.125030213748 0.479027558819 -0.144040359303
63.0833333333 1.25788974762 -1.3604902029 8.50314063428e-06 -1.00566754924e-08 -0.617303489883 0.681653462475 -0.934765783259 0.714004134771
63.125 0.492949962616 -1.71912252903 2.25288363254e-06 4.13422822021e-06 -0.0302387385449 0.439699101806 -0.0946735211621 0.655520445044
63.1666666667 -0.340996563435 -1.7088944912 2.65311790315e-08 -1.90735750039e-06 -0.858014603579 0.144972400797 0.681229216718 0.179781728372
63.2083333333 -1.0642850399 -1.30606782436 3.21488664667e-06 -5.60988200959e-06 0.357618254401 0.111050039633 0.444305324339 0.10386041514
63.25 -1.53495395184 -0.59768974781 4.17330602431e-06 -1.81186817372e-06 -0.833939666793 -0.503248259428 0.680395517966 0.226024543901
63.2916666667 -1.61327314377 0.154782652855 -4.718080163e-06 -8.30618500913e-06 0.386698480688 -0.0241767628343 0.183876412627 0.817318746007
63.3333333333 -1.34904396534 0.833583414555 -3.66967128684e-07 2.37331892095e-06 -0.678223917019 0.0935930676955 0.634018808693 0.62376592028
63.375 -0.847637653351 1.30497121811 -6.7445125751e-06 -1.02263311419e-06 0.225106218568 0.62127379131 -0.0697865583899 0.784889076654
63.4166666667 -0.206875100732 1.51558434963 4.52952190244e-06 -1.31669239636e-05 0.401663906578 -0.618480574194 -0.902493610425 -0.713784399794
63.4583333333 0.462374001741 1.46537482738 -6.6047123255e-06 -3.89187562178e-06 0.0584237159893 -0.0494496499633 -0.31214559376 -0.427008294384
63.5 1.0248374939 1.21287834644 -1.03668560314e-06 -5.11143025506e-06 -0.884135223247 0.104513780253 -0.0594837358518 0.364034797185
63.5416666667 1.47181665897 0.660612940788 -4.15813428845e-06 8.63686636876e-06 0.744689317066 0.734021927227 -0.32652252802 0.536940693152
63.5833333333 1.73179292679 -0.0271575599909 -4.20419564762e-06 7.77540662966e-06 0.118278389084 -0.255173828884 -0.882404827008 0.250274173272
63.625 1.57318031788 -0.839924395084 -5.64064430364e-06 -1.10136770672e-05 -0.537518688213 -0.306153057309 -0.250547280436 -0.779077062258
63.6666666667 1.04372882843 -1.39561498165 -8.33091417007e-06 1.32408899844e-07 0.890103458366 -0.68410896947 0.12756246646 0.311033042009
63.7083333333 0.321546196938 -1.73631727695 9.43186205404e-06 -9.45565432175e-07 -0.537916084912 -0.684566890437 0.7718450622 -0.626185531441
63.75 -0.507461130619 -1.7063690424 -7.43429018257e-06 -5.77234413868e-06 -0.631642247369 0.932812129443 0.837163675269 -0.481704886937
63.7916666667 -1.3189702034 -1.28847408295 1.01165487649e-05 6.54701807434e-06 0.961935907567 0.490488184989 -0.0129669676156 0.805685614386
63.8333333333 -1.70503330231 -0.556695222855 1.57980366566e-06 5.20281491845e-06 0.575379949541 -0.458664999778 0.722211751443 0.549939528452
63.875 -1.67152655125 0.199703097343 -5.79340758122e-06 5.37591904504e-06 0.466976994109 -0.0424766990956 0.0689070522315 -0.18260889834
63.9166666667 -1.3872628212 0.85880702734 6.45343880024e-06 1.49198262989e-06 -0.55297245353 -0.189656806441 0.00670391552779 -0.679772005674
63.9583333333 -0.931096732616 1.3879390955 -4.64310778625e-06 3.00527744912e-06 0.248347399452 0.0276276799195 -0.346411583885 0.855973836005
64.0 -0.29777649045 1.5236890316 1.14437534648e-06 4.0954864744e-06 -0.726317153384 -0.261289173118 -0.363456290662 0.847974689208
64.0416666667 0.302398741245 1.49314045906 -8.26641553431e-06 4.04179036195e-06 -0.79283429814 -0.262444273477 0.82866007733 -0.123991103994
64.0833333333 0.875795662403 1.21734726429 1.38476407301e-05 -1.63131176123e-06 -0.0199671650921 0.210371567026 0.558218367231 0.928632877813
64.125 1.31478774548 0.71180421114 -1.42104490806e-05 -8.55891266838e-06 0.453337976311 0.93079197767 -0.176876360728 0.318585699309
64.1666666667 1.5583306551 0.0340957008302 -1.40270667544e-05 -1.0033714716e-05 0.52545614518 0.715004739111 -0.931159274605 -0.0831603096645
64.2083333333 1.49266278744 -0.673729717731 5.5518166846e-06 2.15174532059e-06 -0.00821826958502 -0.951225768322 -0.100241812105 0.334740610802
64.25 1.10635685921 -1.20891523361 -1.66650879692e-05 2.98966551782e-06 0.803692340157 -0.843930124095 -0.237157140038 0.439628426468
64.2916666667 0.491950720549 -1.63270354271 -6.09354037806e-06 6.57130567561e-06 0.846612517181 -0.234814356036 -0.356982311638 -0.485950804682
64.3333333333 -0.244673848152 -1.65933644772 -1.64699122251e-05 -3.0333212635e-06 0.226553608783 0.955290221764 0.887862232882 0.880619639971
64.375 -1.04928696156 -1.38372254372 -1.08784061013e-05 -2.65880203187e-06 0.128655015266 0.5267121438 -0.310996644398 0.245719925931
64.4166666667 -1.56189465523 -0.710493028164 1.05916387838e-05 -1.27268322103e-06 0.807482626815 -0.827589608652 0.48345733435 0.851562169876
64.4583333333 -1.6452858448 0.0640788152814 -4.57029273093e-06 2.98029726764e-06 -0.584389658575 0.0914760460349 -0.515106346753 -0.572974401044
64.5 -1.44349789619 0.811902105808 -3.7264128423e-06 -2.5055525839e-05 -0.942362964918 0.870323742859 0.871880067311 0.681176626563
64.5416666667 -0.822892189026 1.17257213593 -2.84780344373e-06 1.41474561133e-06 0.38670804707 0.131542580861 0.27557141067 0.00622057609079
64.5833333333 -0.312227636576 1.37756812572 -1.63340428116e-05 3.88409216612e-06 -0.0545131577558 -0.727609396708 0.518338234764 0.405047920685
64.625 0.340419083834 1.59342038631 3.66016524822e-06 3.33247430717e-06 -0.0378214334106 -0.101765831783 0.744970603189 -0.615388083978
64.6666666667 1.05045831203 1.3733394146 6.97379664416e-06 4.6080899665e-06 0.950472547544 -0.583398513323 -0.505549118932 0.897429924688
64.7083333333 1.53607666492 0.843122541904 2.23494589591e-05 8.44876740302e-06 0.378569150295 0.228740396403 -0.366382964448 0.778086910691
64.75 1.66096007824 0.241667419672 9.94899710349e-06 -3.32311014972e-06 -0.808180185573 0.742455135098 0.0693200689429 -0.156232120595
64.7916666667 1.60371315479 -0.331231683493 -1.23940174035e-06 -9.70501787378e-06 0.909117401361 -0.608909119227 -0.726262430081 -0.812232116525
64.8333333333 1.33647501469 -0.925385892391 9.51150559558e-06 3.06744323098e-06 -0.105606431907 -0.382812975417 0.064266491472 -0.399492031022
64.875 0.856124699116 -1.56353962421 2.36269261222e-06 -5.71675218453e-06 0.905969903569 -0.709971977085 0.846046718987 -0.120495179355
64.9166666667 0.0916535183787 -1.74087798595 -3.76622701879e-05 2.08503352042e-05 0.441477818443 0.695240797155 0.532925359422 0.790924401641
64.9583333333 -0.573385179043 -1.4440227747 -7.73360352468e-06 8.08695915566e-07 0.657764414391 -0.631718710218 -0.0579009568727 -0.21398580299
65.0 -1.08645510674 -0.981869459152 -4.69046335638e-06 7.06248920324e-06 0.644096577502 0.620542804105 -0.34876541973 -0.393984287069
65.0416666667 -1.44223821163 -0.351338475943 4.95232461617e-06 -5.15386045663e-06 0.0988942410133 -0.582615177481 -0.783694687362 -0.653600522916
65.0833333333 -1.48906767368 0.342775195837 1.58601301337e-06 8.26121959108e-06 -0.579006034772 -0.233206732065 -0.456595923913 -0.483367504779
65.125 -1.18433225155 0.942777037621 -2.68501253231e-06 -1.21410694192e-05 0.941164688914 0.494222135412 -0.64741731329 0.351054213715
65.1666666667 -0.589360296726 1.34564566612 1.29337686303e-05 1.47930459207e-05 0.293552023947 0.809276396509 -0.994533618619 -0.0915868202678
65.2083333333 -0.0207630507648 1.38569819927 2.33648984249e-06 -8.71798965818e-06 -0.459110299728 0.471303621534 0.279807435529 0.717693016671
65.25 0.381208062172 1.23827278614 -1.39130243042e-05 -1.3441357396e-06 0.534909226116 0.756378654608 -0.321653497181 0.438965836611
65.2916666667 0.918965756893 1.00008225441 1.87421919691e-05 -2.5207446015e-06 -0.673755965844 0.559881692125 0.0386271610098 -0.172938345505
65.3333333333 1.28539943695 0.563059866428 6.41804808765e-06 7.44700173527e-06 -0.531120040488 -0.129681574773 -0.716147507987 0.158343244842
65.375 1.44917798042 -0.0136257866398 -4.34720550402e-06 -9.81566881819e-06 0.291545228338 0.469216373968 0.98887735116 0.628794774613
65.4166666667 1.35897493362 -0.621578156948 -6.47312936053e-06 -1.83416177606e-05 -0.0880509048375 -0.311365348865 -0.329205406328 0.516208236431
65.4583333333 1.03639054298 -1.21005737782 -4.91408673042e-06 -3.02644502881e-06 -0.454588717614 -0.938949226648 -0.426906441538 -0.514458953704
65.5 0.413573682308 -1.54919695854 -1.09096627057e-05 -1.50530786414e-05 0.915504384621 -0.8793730195 0.955366156867 0.197334279098
65.5416666667 -0.399892956018 -1.58097577095 -1.1445623386e-05 1.41284635902e-05 0.291690343046 -0.341602439787 0.919247183527 -0.887757261326
65.5833333333 -1.07318282127 -1.2841565609 -4.94473761137e-06 -1.47898872456e-05 0.44215157446 0.179801871259 -0.374081185817 0.313409694533
65.625 -1.53518176079 -0.783813893795 -1.38700725074e-05 1.25346059576e-05 -0.344802337242 0.809470179581 -0.470903368188 -0.719965740478
65.6666666667 -1.71623134613 0.0107417004183 1.73489770532e-05 1.04160681076e-05 -0.606238321898 0.598950207966 -0.196854251727 -0.875792711735
65.7083333333 -1.45169210434 0.731131374836 4.2613916662e-07 7.87924273027e-06 0.803159525534 -0.370687569985 -0.845299236918 0.54220796747
65.75 -0.99627584219 1.24593186378 -5.5616451391e-06 -7.71018039813e-06 0.569687362947 -0.196792882617 -0.634061726774 -0.978311816443
65.7916666667 -0.464470028877 1.54312193394 -1.0785759514e-05 -3.78702657144e-06 0.471600268454 -0.581206402648 0.655495103774 0.0788498494546
65.8333333333 0.206218257546 1.5488948822 1.28989222503e-06 1.31808674269e-05 0.201805108208 0.402461686008 0.129350591958 -0.726914999799
65.875 0.78006285429 1.33972227573 -1.76758148882e-05 -7.0248679549e-06 -0.148663335296 -0.96844116236 -0.737970726902 -0.277524929539
