!Created with skrf (http://scikit-rf.org).
# GHz S RI R 50.0 
!freq ReS11 ImS11 ReS21 ImS21 ReS12 ImS12 ReS22 ImS22
75.0041666667 1.14884972572 -0.311694532633 -6.6151660576e-06 2.4349526484e-06 -0.742131412029 -0.226345315576 0.306917667389 0.119110271335
75.0583333333 0.740642547607 -0.893607258797 1.30379760321e-06 -7.33339993531e-06 1.2466070652 -0.107251994312 0.369669407606 -0.378085017204
75.1125 0.132611602545 -1.1045768261 -2.16656735574e-06 -3.2070972793e-06 2.52645206451 -4.02854013443 -5.48368501663 -1.0591789484
75.1666666667 -0.469199776649 -0.977716982365 3.68731070921e-06 -1.07010514228e-07 1.39298260212 0.105664633214 0.115028098226 1.97796475887
75.2208333333 -0.88042062521 -0.585550546646 -2.94930282507e-06 5.1342237839e-07 0.568070650101 0.478700190783 1.0765427351 -0.787187039852
75.275 -1.04267573357 -0.0474508069456 -1.97932467927e-06 -9.27246946958e-06 -0.24392311275 0.0166273694485 0.285681158304 0.500415325165
75.3291666667 -0.920640468597 0.498319864273 -5.9179683376e-07 -7.26391863282e-06 -0.483215779066 -0.958064079285 0.339090526104 0.286324352026
75.3833333333 -0.5358543396 0.912683129311 2.24961968343e-06 3.92830861529e-06 -0.0855714380741 -0.610582053661 -0.0263583362103 -0.2397775352
75.4375 0.0234832633287 1.07251417637 3.96653013013e-06 -2.03936153298e-07 -0.333008736372 -0.217570602894 0.249210804701 -0.295844227076
75.4916666667 0.596901893616 0.898457407951 -4.66000642518e-07 -1.63472589065e-06 0.358184069395 0.135822698474 -0.137643396854 -0.287795484066
75.5458333333 1.00136756897 0.451732307673 -2.55803752225e-06 -6.67349695505e-06 -0.65570795536 -0.131662145257 0.112700141966 0.243583202362
75.6 1.08385717869 -0.183642074466 -7.52924051994e-07 -7.00495365891e-06 -0.821379840374 -0.382906407118 0.330585092306 0.0188408903778
75.6541666667 0.804946899414 -0.731204390526 -1.16552416785e-06 6.29778242001e-06 0.488196015358 0.685110628605 -0.172529146075 -0.367704719305
75.7083333333 0.304808408022 -1.02195763588 -3.77760920856e-06 -1.05815638562e-06 0.104932568967 0.057340182364 -0.0183408893645 0.35505142808
75.7625 -0.274762481451 -1.0333315134 -4.75951446788e-06 -3.32796844305e-06 -0.139313399792 -0.642446160316 -0.0845189914107 -0.23284804821
75.8166666667 -0.763046145439 -0.720199048519 -1.37579604598e-06 1.60693525686e-06 0.424087285995 0.149349361658 0.0368065424263 0.0588660314679
75.8708333333 -1.02573597431 -0.21207202971 3.04621153191e-07 -4.02717432735e-06 0.392730921507 -0.205700516701 0.577511847019 0.394821792841
75.925 -0.963713169098 0.338798075914 5.14736484547e-06 3.34368382937e-06 -0.0821520984173 -1.38616812229 0.368954926729 -1.44853401184
75.9791666667 -0.659461140633 0.73366612196 2.8922331694e-06 -7.76418346504e-06 -0.512090325356 0.835886955261 -0.0879140794277 0.783211886883
76.0333333333 -0.212172746658 1.00774013996 5.10526979269e-06 1.95762368094e-06 2.8924639225 -0.469417333603 1.1621683836 -0.677884876728
76.0875 0.364488333464 0.982096970081 2.2414869818e-06 9.36619812819e-07 -0.548828780651 -1.11083483696 4.1515583992 6.52744531631
76.1416666667 0.845321953297 0.646483063698 -3.83054930353e-06 -4.42311329607e-06 -0.552863359451 -0.28395152092 -0.112550370395 0.475268810987
76.1958333333 1.05565226078 0.0963659659028 -2.28621820497e-06 -5.60284661333e-06 -0.0809360817075 0.319200158119 0.301196962595 0.178085446358
76.25 0.938862621784 -0.443216443062 -2.93185308919e-07 -2.62637013293e-06 -0.451373070478 -0.403318047523 0.286457717419 0.628029882908
76.3041666667 0.552586197853 -0.884962022305 -7.74940644988e-07 -2.11017186302e-06 -0.081322491169 0.378263175488 0.438262611628 0.262590199709
76.3583333333 -0.0197229590267 -1.02032959461 -6.43976272841e-06 -1.59408966738e-06 0.167950212955 -0.233292579651 0.359302669764 0.00662698037922
76.4125 -0.534935951233 -0.829338252544 -3.74282035409e-06 -1.40309225571e-06 0.585742771626 0.18977431953 0.866589605808 -0.201525911689
76.4666666667 -0.879793167114 -0.433097928762 -6.30496833764e-06 -5.81072799832e-06 0.348384529352 -0.639225780964 0.467003971338 0.272941589355
76.5208333333 -0.95750951767 0.0580334812403 8.47670162329e-06 -4.82531913804e-06 -1.2066860199 -3.6986246109 3.33840513229 1.823376894
76.575 -0.790235459805 0.548592865467 2.81872416963e-06 -7.39108827474e-06 1.78361678123 0.489489763975 1.03897631168 0.695673763752
76.6291666667 -0.396284461021 0.859440624714 1.10998698801e-05 -2.70356963483e-06 -0.0291460920125 1.12535858154 -1.05321681499 -2.25885558128
76.6833333333 0.0874298289418 0.942043602467 7.75814612552e-07 -8.75881198681e-07 -0.40710324049 -0.0871761515737 0.307659745216 0.326243519783
76.7375 0.552682697773 0.770488262177 3.19297396345e-06 1.97443682737e-06 0.458687663078 0.117066301405 -0.00171262584627 0.0858878716826
76.7916666667 0.883185505867 0.37308049202 -2.94856204164e-06 6.65109882902e-06 2.73127484322 2.11406731606 -0.391945749521 -0.766289114952
76.8458333333 0.98639857769 -0.172521173954 1.72820148236e-06 7.08267816663e-06 0.889985978603 -1.77826905251 -1.07174682617 0.00779887801036
76.9 0.728551864624 -0.662058353424 6.01107012699e-06 3.82918597097e-06 0.0844978243113 1.51815450191 0.50972276926 0.682139694691
76.9541666667 0.240304470062 -0.939941108227 -6.77815492622e-08 -3.65319101547e-06 0.210597082973 -0.278571307659 0.231416806579 -0.0611026883125
77.0083333333 -0.268920958042 -0.913189351559 4.73661839351e-06 5.6257107417e-07 -0.106795601547 -1.26500356197 0.125193014741 -0.0781703069806
77.0625 -0.686939895153 -0.637417078018 9.6699795904e-06 1.65212770753e-06 -1.07897949219 1.8224221468 -1.57283401489 -0.305105835199
77.1166666667 -0.926003336906 -0.210331574082 2.88543997584e-08 -9.26379289012e-06 0.2023139745 -0.504423737526 -0.328070104122 0.19217197597
77.1708333333 -0.907206058502 0.267762929201 7.50542994865e-06 8.79052822711e-06 0.785223007202 0.3440335989 0.59042596817 0.539046049118
77.225 -0.664183139801 0.696628749371 -5.8617843024e-07 -9.00363829714e-06 0.900769591331 1.5444996357 -0.16051132977 0.837545871735
77.2791666667 -0.209726497531 0.933700442314 -1.31849410536e-05 5.68248060517e-06 -0.295558929443 -0.226333990693 -0.544907808304 0.00746288755909
77.3333333333 0.295713037252 0.922760725021 3.96454424845e-06 2.05664855457e-06 2.46050405502 0.0213221609592 -0.359138548374 -3.82730174065
77.3875 0.724615931511 0.651581823826 3.65614141629e-06 4.95875212891e-07 0.370049208403 0.152269214392 -0.0674051493406 -0.388576894999
77.4416666667 0.969475328922 0.196725308895 4.18644822275e-06 -5.2622426665e-06 0.492139160633 0.069927752018 -0.477876782417 0.590084373951
77.4958333333 0.918873012066 -0.338912039995 2.3380384846e-06 7.17072043699e-06 -1.11908853054 -0.024065868929 -0.136059626937 0.362095326185
77.55 0.615745961666 -0.747435152531 8.06266371001e-07 1.39800772558e-06 0.254634350538 0.339824080467 0.596755623817 0.36250808835
77.6041666667 0.152734488249 -0.940358698368 8.70601866154e-07 8.74025226949e-06 -0.416000515223 -0.870802879333 -1.01688683033 0.269982516766
77.6583333333 -0.344230204821 -0.878642380238 -6.38094707028e-06 -4.65893208457e-06 0.0087191555649 -0.00322002987377 0.0616952814162 0.0446759648621
77.7125 -0.740256011486 -0.58659029007 -7.51549669076e-06 8.66722348292e-06 -1.66542816162 -2.05495095253 -4.29263973236 -1.13063728809
77.7666666667 -0.942954003811 -0.149833917618 4.60935069668e-07 2.11475094147e-06 -0.304444164038 0.733332395554 0.164198577404 -0.854573369026
77.8208333333 -0.878175079823 0.351595848799 -1.25073358959e-06 4.70869190394e-06 -0.026147980243 0.826555788517 -0.412281125784 0.218039691448
77.875 -0.578982055187 0.750568807125 -2.68769349532e-06 -4.23557321483e-06 6.04859256744 -5.48760128021 -2.4907708168 -0.0289748311043
77.9291666667 -0.116707213223 0.951413393021 -3.01299951389e-06 2.64530194727e-06 0.862874925137 0.231461346149 0.325867295265 0.356588244438
77.9833333333 0.377163380384 0.88837480545 4.72411647934e-06 -9.68243966781e-06 0.167283326387 -0.396854907274 0.385001391172 -0.389024734497
78.0375 0.792834758759 0.578615307808 -6.72316082273e-06 4.34800131188e-06 -0.115240268409 0.0958517119288 -0.722055971622 -0.845111846924
78.0916666667 1.00549376011 0.0743705108762 6.28910902378e-06 4.57606802229e-06 -0.651734948158 -0.0806696265936 -0.365269124508 -1.05141472816
78.1458333333 0.908695697784 -0.468268036842 -4.40766734755e-06 -5.87766237459e-07 -0.251389443874 -0.752788424492 0.561173558235 -0.257695257664
78.2 0.528065502644 -0.899156808853 4.06733988711e-06 -3.34295395987e-06 -0.164153441787 -0.22917419672 -2.35793471336 -0.567175805569
78.2541666667 -0.0447248890996 -1.04258513451 2.93985840472e-06 -7.75515559326e-07 -0.0848233774304 0.300150424242 0.804246902466 0.362804979086
78.3083333333 -0.60557192564 -0.858431041241 4.5260276238e-06 1.26040049508e-06 0.12202295661 0.106416784227 -0.111609853804 -0.340965867043
78.3625 -0.951211392879 -0.373119622469 1.19666692626e-05 -5.35316803507e-06 -1.56259965897 0.111920341849 1.45914328098 -0.919103443623
78.4166666667 -0.950550794601 0.138847723603 -1.48011292822e-06 7.50726621845e-06 0.241076812148 1.791908741 0.310067206621 1.10497975349
78.4708333333 -0.768250823021 0.563920199871 -3.48291973751e-06 3.21096467815e-06 1.13631904125 -0.101386874914 1.16364741325 2.14697957039
78.525 -0.397186279297 0.888331890106 9.63569254964e-06 -6.89524040354e-06 0.694146335125 -0.758892059326 -0.388830333948 -0.0364485532045
78.5791666667 0.117278113961 0.983130931854 1.54642054895e-06 -7.48752654545e-07 0.610826909542 0.91522538662 -0.0543038807809 0.221337720752
78.6333333333 0.630367219448 0.792666614056 1.60020022122e-06 5.84520421398e-06 2.62558579445 0.896415829659 -0.435052394867 -0.556599795818
78.6875 0.945717215538 0.346612066031 1.51983363139e-06 8.4231743358e-07 -0.0523305311799 -0.0576498880982 0.00916226394475 -0.330661118031
78.7416666667 0.993811249733 -0.183599740267 -4.77917637909e-07 3.56518103217e-06 -0.533528745174 0.194283679128 -0.425496578217 -0.0018689368153
78.7958333333 0.774161279202 -0.684868574142 -1.80081156032e-06 3.14698104376e-06 -0.616648077965 0.460617750883 -0.671734750271 1.72165131569
78.85 0.326903760433 -1.00133764744 -1.66058703144e-06 1.62672438364e-06 2.57214021683 1.50826156139 -0.789729177952 1.17565262318
78.9041666667 -0.268357515335 -1.04312336445 6.02425780016e-06 3.88976701515e-07 -1.97413861752 1.18219470978 -0.803605556488 0.198241323233
78.9583333333 -0.753275156021 -0.740713179111 4.20513924837e-06 1.14556655717e-06 -0.635370135307 -0.765052080154 0.405226588249 -0.818974256516
79.0125 -1.02113628387 -0.248873263597 -4.74624539493e-06 1.30984267344e-06 0.127126693726 -0.0684898495674 -0.364534527063 -0.199301764369
79.0666666667 -0.990540444851 0.307776033878 3.34047444994e-06 2.55701888818e-06 -1.22603547573 -0.94230312109 0.105447202921 -1.71217489243
79.1208333333 -0.675247192383 0.738330900669 -1.39470978411e-06 2.64877007794e-06 0.0106409406289 0.236215159297 -0.571249604225 0.841719388962
79.175 -0.228499382734 0.931257784367 1.11091378585e-06 7.15723081157e-06 0.2885440588 -0.65177410841 -0.128341779113 0.289999812841
79.2291666667 0.247619584203 0.914521515369 4.67894915346e-06 -1.77455103767e-06 -0.801003336906 0.786268889904 -0.29888010025 -0.0466590337455
79.2833333333 0.661071658134 0.690061271191 -3.01730040064e-07 1.02222998066e-06 -1.16242957115 0.631546914577 -1.68579339981 0.037113815546
79.3375 0.942897677422 0.319986671209 -3.62475793736e-06 -5.55711403649e-06 0.568735659122 -0.194202944636 0.198092088103 0.336798459291
79.3916666667 1.02834749222 -0.301680982113 -2.50077914643e-06 9.76849241852e-06 -0.84877794981 -0.0950072184205 -0.337431281805 0.0537170507014
79.4458333333 0.712697207928 -0.776544630527 -9.71996996668e-07 -2.37289071947e-07 -0.204569816589 0.694276452065 -0.258778452873 -0.467050731182
79.5 0.239980190992 -1.00144672394 1.43033491895e-06 -7.43617647458e-07 -1.03221130371 0.469919979572 0.649011552334 0.856649696827
79.5541666667 -0.241435900331 -1.00819444656 8.73896510711e-07 -4.47485217592e-06 0.222500830889 -0.0552689433098 0.0325797945261 -0.217374965549
79.6083333333 -0.744748294353 -0.759510695934 3.68918819049e-07 -1.69701547748e-06 0.568232536316 0.788020730019 0.0885595977306 -0.329832702875
79.6625 -1.02842271328 -0.255488336086 -6.22876268608e-06 2.83268218482e-06 0.738013267517 -0.524401128292 0.57548224926 -0.488968789577
79.7166666667 -0.987985253334 0.301574200392 2.09821314456e-06 -7.78749654273e-06 0.18228431046 -0.649435639381 0.133394896984 -0.235374718904
79.7708333333 -0.683275699615 0.74975836277 1.53440737449e-06 -1.33012497372e-06 0.0676130130887 1.06414222717 0.54865527153 -1.55737495422
79.825 -0.226780802011 0.968307971954 -2.84572934106e-06 4.39341010861e-06 0.15164385736 -0.658101499081 -0.043255854398 0.254722952843
79.8791666667 0.267497986555 0.946449637413 -8.66501886776e-06 -3.95165079681e-06 -1.74785041809 2.10094642639 2.38536071777 0.92405551672
79.9333333333 0.684853255749 0.716173410416 -3.61991965292e-06 3.6238714074e-06 0.723640084267 -0.0399228744209 0.532618701458 1.16614592075
79.9875 0.980997741222 0.288367182016 5.12589531354e-06 9.1317508577e-07 -0.46968999505 0.407009333372 0.200592443347 -0.477871537209
80.0416666667 0.99272197485 -0.313478022814 -4.31173839388e-06 -5.93491300549e-08 4.11099052429 4.97346878052 -0.732839345932 3.09676885605
80.0958333333 0.730290293694 -0.732049286366 -6.6594971031e-06 3.34537708113e-06 0.424156337976 -0.352577418089 -0.236885458231 0.440956622362
80.15 0.303103685379 -0.965486168861 -6.723049637e-07 9.5078121376e-06 0.491537451744 -0.252640098333 0.508942067623 -0.590157032013
80.2041666667 -0.148694694042 -0.992624402046 -6.94695870607e-07 6.28432474059e-07 -0.319768756628 1.13435137272 0.00219251471572 0.739711761475
80.2583333333 -0.65547978878 -0.806359708309 5.44053182239e-06 8.09973244031e-06 -0.362189441919 0.709660112858 0.236664801836 -0.804077804089
80.3125 -0.993756890297 -0.360372275114 1.07753576231e-05 -4.87626221002e-06 -0.191722527146 -0.562024772167 0.804062604904 -0.450501561165
80.3666666667 -1.01540362835 0.209048435092 3.43728902408e-06 3.62083619621e-06 0.237352669239 -0.271113932133 0.327921152115 -0.405391037464
80.4208333333 -0.741225481033 0.654151439667 -3.28277178596e-06 -7.87135559221e-06 0.266129165888 -0.57484805584 -0.41862231493 -0.343818694353
80.475 -0.329141825438 0.940373659134 -5.33025399818e-07 7.46943305785e-06 -0.0285714175552 0.142329588532 0.740417957306 0.159076884389
80.5291666667 0.183142319322 0.949528634548 -2.66810661742e-06 -6.62550291963e-06 -0.475194603205 -0.230277240276 0.141741752625 -0.852990567684
80.5833333333 0.629399836063 0.721688449383 4.02493606089e-06 -1.06442151093e-07 -0.240974888206 0.095329515636 0.286752998829 0.228114783764
80.6375 0.882923603058 0.324437499046 -6.58922408547e-06 -1.62404478488e-06 -0.446020066738 -0.161472812295 -0.514631390572 -0.0494916327298
80.6916666667 0.936931312084 -0.115648239851 4.96960774399e-06 2.66341476163e-06 -0.647109925747 -0.597469747066 -0.0296397209167 0.833297371864
80.7458333333 0.767632365227 -0.56453704834 -5.56677832719e-07 -5.79021343583e-06 -0.718443095684 0.245940849185 0.687019765377 -1.17956030369
80.8 0.472169995308 -0.846684336662 -7.28529767002e-06 -6.00036855758e-06 -0.0648642629385 -0.5924654603 -0.39806124568 0.287346273661
80.8541666667 0.00380723597482 -1.01886606216 1.77266895207e-06 4.02705154556e-06 0.103545449674 -1.43443346024 0.162449091673 0.105043537915
80.9083333333 -0.541478574276 -0.930855929852 -2.79632013189e-06 2.09981621424e-07 -0.985915362835 -1.77802813053 0.105104058981 2.00300741196
80.9625 -0.961696326733 -0.515796661377 -2.3796228561e-06 3.52824827132e-06 0.456887423992 -0.271145164967 0.284146636724 -0.782755732536
81.0166666667 -1.09079360962 0.0561195760965 8.95841094462e-06 -8.23601203592e-06 0.385371297598 -0.226922944188 0.903518676758 -0.39898878336
81.0708333333 -0.892719328403 0.611669421196 -1.37719155191e-07 -2.99476550936e-06 0.364861696959 -0.10174831748 0.295571386814 0.118198290467
81.125 -0.390378624201 0.977655947208 1.77823017111e-06 2.22167591346e-06 -2.69964528084 0.446956396103 -0.570407450199 -0.799413323402
81.1791666667 0.104573719203 1.01139605045 5.65828622712e-06 1.31519936986e-06 1.26417398453 0.599623799324 0.303354591131 0.114025644958
81.2333333333 0.544858634472 0.821877419949 -4.28026669397e-06 3.37339133694e-06 0.720351696014 0.212744936347 -0.0546465404332 0.108040630817
81.2875 0.846180140972 0.454170405865 4.04514139518e-06 1.60156434958e-06 2.7703909874 -4.18788099289 -0.957045972347 -0.623725771904
81.3416666667 0.917883396149 0.048566646874 -4.64958429802e-06 9.56058556767e-06 0.25240457058 -0.0520379208028 0.748256802559 0.180070117116
81.3958333333 0.871105909348 -0.380506515503 2.85706801151e-06 6.1718537836e-07 -0.382593929768 0.579808354378 -0.214362919331 0.0379676856101
81.45 0.633439719677 -0.768095552921 2.05186006497e-06 4.34644198322e-06 0.199474528432 0.264053553343 -0.362524658442 -0.129650086164
81.5041666667 0.163050755858 -1.03525996208 4.05436867368e-06 -1.81008226718e-06 0.264203518629 0.206956148148 0.0638119652867 0.788931131363
81.5583333333 -0.383692711592 -0.979075074196 5.36536208529e-06 -3.80838264391e-06 0.362375855446 -0.000811512523796 0.379928976297 -0.167287811637
81.6125 -0.795650482178 -0.660943806171 -4.92934668728e-06 -2.83936697087e-06 -1.57235181332 1.30431592464 1.82746493816 -1.53447437286
81.6666666667 -1.040102005 -0.227017238736 7.49163632463e-07 4.39466111857e-06 0.467630982399 0.0462513230741 -0.157694503665 0.441027194262
81.7208333333 -1.07373952866 0.367066085339 7.95082178229e-06 1.28525698528e-06 0.192646205425 0.653667271137 0.588922023773 -0.268765747547
81.775 -0.739587187767 0.913946151733 3.88494254366e-06 8.97333666217e-06 -0.581819593906 0.700429797173 -0.251076638699 -0.247771710157
81.8291666667 -0.180223941803 1.12290263176 4.23394612881e-06 7.79775291448e-06 1.07111728191 1.43581902981 -0.94832187891 3.057533741
81.8833333333 0.376247823238 1.03182315826 -3.19765968015e-06 -9.57271936386e-07 -0.999154150486 0.0918217301369 0.855622053146 0.544841647148
81.9375 0.823886096478 0.676492393017 -1.75276272785e-06 -4.09567974202e-06 2.47275972366 -8.01415252686 5.45286798477 -1.45186007023
81.9916666667 1.02556836605 0.182237446308 -3.71828741663e-06 7.00749615135e-06 0.515751481056 0.541300714016 0.100704699755 0.299105674028
82.0458333333 0.980461239815 -0.332549989223 6.81776919009e-06 -1.7638534473e-06 -0.424022942781 -0.539035081863 -0.389546692371 -0.406449854374
82.1 0.703845798969 -0.724536478519 -5.79533718792e-07 -3.94863661768e-07 -0.192377895117 0.217710211873 0.138182193041 0.10676857084
82.1541666667 0.285750508308 -0.979058504105 -2.40902204496e-06 3.24552411257e-06 0.654107153416 1.83329510689 -1.16569960117 -0.0227766204625
82.2083333333 -0.215517982841 -1.02402532101 7.25798190615e-06 4.49828212368e-06 0.848311305046 1.81169676781 1.02147889137 1.54415047169
82.2625 -0.691660881042 -0.813787043095 -6.29777605354e-06 8.99012775335e-06 0.250348001719 0.380214631557 0.599902868271 -0.0265420936048
82.3166666667 -1.02545928955 -0.36943885684 -2.424442755e-06 7.75110208906e-07 1.16182363033 0.0164360906929 -0.228438287973 -0.94015032053
82.3708333333 -1.09609150887 0.215094313025 -2.25967073675e-06 2.51946374874e-07 0.251147538424 -0.321371734142 0.359731256962 -0.232668727636
82.425 -0.827479839325 0.738600492477 3.48040657627e-06 2.4587959615e-06 0.0970259681344 0.0592073574662 0.561757743359 0.29986795783
82.4791666667 -0.32990989089 1.05538332462 1.38954226259e-06 1.0201575833e-06 -0.614151000977 -0.775407910347 0.298120439053 0.0170318223536
82.5333333333 0.264609336853 1.07096278667 -1.42170279105e-06 -2.49319782597e-06 0.483813643456 0.151390641928 -0.335391461849 0.0239373706281
82.5875 0.756977856159 0.783691704273 1.38936968597e-06 4.68807274956e-06 3.11591601372 -0.783396601677 0.71700489521 1.74682641029
