!Created with skrf (http://scikit-rf.org).
# GHz S RI R 50.0 
!freq ReS11 ImS11 ReS21 ImS21 ReS12 ImS12 ReS22 ImS22
75.0041666667 -0.0225688368082 0.0126116359606 -6.9656366577e-06 -3.83174779017e-07 -0.00140649802051 0.735834777355 0.542143881321 0.903018534184
75.0583333333 -0.0171571169049 0.0199366882443 -2.97916449199e-06 -5.11973269113e-07 1.28326249123 -0.05071355775 0.879508256912 0.918751120567
75.1125 -0.00990307237953 0.02467998676 8.65190759214e-06 4.1087473619e-06 -0.356788694859 0.831969559193 0.584313571453 -0.201950952411
75.1666666667 -0.00099685555324 0.0273131728172 1.67515031535e-06 -2.50856578532e-06 1.05234467983 2.32387828827 -1.18687391281 -0.426623731852
75.2208333333 0.00810690131038 0.0266312714666 -4.52586255051e-06 -3.13003602059e-06 -0.269289463758 0.0204622428864 0.097748927772 0.650261938572
75.275 0.0170427896082 0.0226851552725 1.37496135721e-06 7.86617306403e-07 -0.210521489382 -0.373698085546 0.535483241081 -0.313894927502
75.3291666667 0.0243109166622 0.0156777705997 7.26754524294e-06 -2.24239829549e-06 -0.582290232182 0.784233689308 -1.36354637146 3.23612499237
75.3833333333 0.0286898668855 0.00628298940137 3.16891009788e-06 8.85651206772e-06 0.256557941437 -0.421595782042 0.138417780399 0.464279264212
75.4375 0.0290463175625 -0.00435329833999 3.20479125548e-06 7.54019367832e-07 -0.157393366098 0.145125821233 0.0591072402894 0.142199188471
75.4916666667 0.0253270808607 -0.0140058444813 3.51306289303e-06 -3.99551800001e-06 0.489252388477 -0.658784389496 0.198167219758 -0.044194471091
75.5458333333 0.0192053299397 -0.021893793717 2.43948875323e-06 5.12065298608e-06 0.562276721001 -0.580014586449 0.347105443478 -0.397567242384
75.6 0.00979128666222 -0.0274142194539 3.36213247465e-06 -2.34020239986e-06 0.986097514629 0.308933377266 0.0792287886143 0.237798377872
75.6541666667 -0.000571066047996 -0.0289188362658 1.16132355288e-06 1.36600908718e-06 0.770070254803 0.333256393671 0.584936439991 0.442810118198
75.7083333333 -0.0102927135304 -0.0266779456288 6.43433213554e-06 -7.10197036824e-06 -0.275549083948 -0.338715314865 -0.0199185367674 0.251772463322
75.7625 -0.0192862208933 -0.0213628336787 4.60277469472e-08 -1.63126435382e-06 -1.69802975655 -2.07121491432 -0.0608346872032 -0.876126646996
75.8166666667 -0.0252716001123 -0.0123828360811 6.20427772446e-06 2.84105658466e-06 0.247628003359 -0.803469717503 0.46987003088 -0.741257309914
75.8708333333 -0.0275699608028 -0.0019387860084 -2.39812061409e-06 -4.41553356723e-06 0.42155200243 -0.291921705008 0.0770710036159 0.0802424326539
75.925 -0.0249160565436 0.00776862166822 -3.53552854904e-06 4.18169889826e-08 -1.90057635307 1.72647404671 0.719731926918 1.43722999096
75.9791666667 -0.0194302145392 0.0141784017906 -1.07820414996e-06 6.40209827907e-06 0.399221301079 0.20194645226 0.912443399429 0.892313480377
76.0333333333 -0.0133751286194 0.0193815883249 6.4695987021e-06 5.0933208513e-06 -1.0690985918 -1.89489531517 -1.11316692829 3.01144528389
76.0875 -0.0055106212385 0.021642010659 2.39486803366e-06 8.37261450215e-06 0.601302564144 -0.413547337055 -0.0203272011131 -0.189414530993
76.1416666667 0.00192843191326 0.0210512280464 6.29455780654e-06 4.69385258839e-06 0.634616136551 0.87656390667 0.273975551128 -0.225176200271
76.1958333333 0.00771320285276 0.0179426148534 1.61375589869e-06 4.68020880362e-06 0.351354777813 -0.594607055187 0.331971555948 0.120128214359
76.25 0.0111497743055 0.014144429937 4.44305527481e-07 -6.95590188116e-06 -1.24546587467 -0.662532806396 4.24119186401 -2.75575137138
76.3041666667 0.0142781035975 0.00999474804848 6.35888000033e-07 -4.0821832954e-06 -0.663756370544 -0.116371572018 0.203888401389 -0.550678133965
76.3583333333 0.0159242916852 0.00508112646639 -4.91151195092e-06 3.65023311133e-06 0.0432613119483 -1.63512074947 1.23615467548 1.32582676411
76.4125 0.0159808956087 0.000522069341969 -2.23322831516e-06 2.73954810837e-06 0.37516951561 -0.506766557693 -0.168565735221 0.515496969223
76.4666666667 0.015497029759 -0.00364225707017 -7.59669163131e-08 -7.38624021324e-06 -0.0241122543812 -0.637026190758 0.482663393021 -0.173489257693
76.5208333333 0.0140206487849 -0.00721500674263 3.67258110145e-07 2.42773649006e-06 -1.49017941952 -1.69569063187 -1.05123031139 -0.664744198322
76.575 0.0116907078773 -0.0111493812874 -1.11750330234e-06 9.03544878383e-06 -0.157575756311 -0.112740725279 0.717610001564 1.31377887726
76.6291666667 0.00822146330029 -0.0140880458057 6.12997428107e-06 -3.24587040268e-06 0.717022418976 1.77207171917 -0.12859903276 0.181347072124
76.6833333333 0.00411065900698 -0.0162233226001 -5.64747824683e-06 2.02062847166e-06 1.00518500805 0.0768064931035 0.301922470331 0.579279601574
76.7375 -0.000774579297286 -0.017299188301 4.58965178041e-06 -5.50983600078e-07 0.0505142770708 0.0224842559546 0.30398735404 0.202872365713
76.7916666667 -0.0065670888871 -0.0168758239597 -1.23037161757e-05 1.25698516058e-05 -4.29245328903 3.70779848099 2.74303007126 -0.718296527863
76.8458333333 -0.0131007274613 -0.0145730450749 1.01417901988e-06 4.87567558594e-06 0.0855695977807 0.339391380548 0.174714967608 0.0883627310395
76.9 -0.0177653003484 -0.00905052665621 9.00710983842e-06 -8.22358856567e-07 -0.238667801023 0.137320622802 -0.739137172699 0.121239244938
76.9541666667 -0.0202939752489 -0.00139488035347 3.30755170808e-07 2.44070997724e-06 0.646867096424 -0.286899626255 -1.4095761776 -5.21761655807
77.0083333333 -0.0195547435433 0.00619310652837 4.77699722978e-06 -2.1882431156e-06 -0.751472175121 0.0254961363971 0.609366774559 -0.971786677837
77.0625 -0.0156928934157 0.0131410537288 -1.44216699027e-07 -7.45635702515e-07 0.805020213127 -0.48056319356 0.528499901295 -0.746929466724
77.1166666667 -0.00959589052945 0.0183357819915 1.03317674416e-07 -6.95270273354e-06 0.629578948021 0.855024814606 0.25282740593 0.714662134647
77.1708333333 -0.00206611864269 0.0199866108596 -3.30618513544e-06 8.12733287603e-06 -0.469345599413 0.152066931129 0.100495696068 -0.0960745066404
77.225 0.00554890232161 0.0187724679708 -1.16352630357e-05 -1.40032773288e-06 0.112311087549 0.471182316542 0.252269595861 1.06678760052
77.2791666667 0.0117172310129 0.0141307469457 8.4134262579e-06 -1.17425834105e-05 0.0477017238736 0.0982681065798 -0.254087626934 0.20375135541
77.3333333333 0.0152754727751 0.00817100517452 4.35671699961e-06 2.09533118323e-06 1.10512435436 1.58219504356 -0.0855495780706 0.369267106056
77.3875 0.0159444324672 0.00183265341911 -3.7427520283e-07 7.64642754802e-06 3.66314458847 -1.27610814571 2.18143391609 0.393114596605
77.4416666667 0.0144303282723 -0.0038826642558 -5.26918938704e-06 9.78156435849e-07 0.0879981517792 0.765046596527 0.00774602359161 0.215974673629
77.4958333333 0.0105522256345 -0.00817529391497 1.57603335538e-06 -3.39308712682e-06 0.00617982400581 -0.0687766745687 0.224252969027 0.866760075092
77.55 0.00610751006752 -0.00999936740845 -3.59596469934e-06 3.07477876049e-06 1.16670632362 0.46089938283 1.47824561596 0.7044749856
77.6041666667 0.00194903963711 -0.00980154238641 2.90702428174e-06 7.91713409853e-06 0.267891556025 -0.274817377329 -0.158266931772 -0.208248630166
77.6583333333 -0.00118703057524 -0.00819142814726 3.63244021173e-06 2.72645638688e-06 0.541063666344 0.480288743973 -0.594402194023 -1.15628933907
77.7125 -0.00274602230638 -0.00606481265277 -6.15102590018e-06 8.00031898507e-07 -1.98830401897 -1.99725854397 -0.843922376633 0.632971405983
77.7666666667 -0.00296022347175 -0.00435679545626 -3.18796924148e-06 2.71686894848e-06 0.476699560881 -0.415081560612 1.02905678749 -0.0653388276696
77.8208333333 -0.00258959666826 -0.00342636625282 -2.00196404876e-06 -2.95699169328e-06 -0.176485359669 -0.868041455746 -0.31493255496 -0.390420377254
77.875 -0.00239741196856 -0.00347275123931 -6.08259688306e-06 5.1308552429e-06 0.349109470844 -1.99705708027 -0.521645307541 -0.713556528091
77.9291666667 -0.00303622079082 -0.00401533860713 5.50318475234e-07 -4.15977183366e-06 1.03293740749 -0.760678589344 0.298855394125 -0.0240415539593
77.9833333333 -0.00450521940365 -0.0042940499261 5.28529790245e-06 -4.05659648095e-06 0.799912273884 -0.64272493124 -2.55095386505 1.90941250324
78.0375 -0.0068679638207 -0.00348653295077 -5.75617650611e-06 -8.82612039277e-06 -0.625666797161 1.40148591995 -0.729999005795 0.345956385136
78.0916666667 -0.00915158167481 -0.00116056622937 2.47958678301e-06 -4.89244348501e-06 0.178429797292 0.231665864587 -0.795954823494 -0.337807178497
78.1458333333 -0.0103433504701 0.00249651097693 -9.64999435382e-06 -1.8849935941e-06 -0.740866422653 0.851213634014 -0.19457039237 1.6452794075
78.2 -0.00976353418082 0.00711641367525 9.71011195361e-06 -4.58263639302e-06 0.69785118103 -1.00388157368 0.595541059971 -0.562277793884
78.2541666667 -0.00663998443633 0.0115258237347 -2.75851175502e-06 5.36161815035e-06 -0.442052721977 0.950685679913 -0.466880232096 -0.131309494376
78.3083333333 -0.00132303498685 0.0144423851743 8.34847071474e-07 9.59130034062e-07 0.750733017921 0.899348020554 -1.62206566334 0.220743685961
78.3625 0.00533867394552 0.0139760086313 -7.25509335098e-06 2.09589347833e-06 -0.93208783865 -0.377475917339 -0.30361238122 0.946991562843
78.4166666667 0.0101742418483 0.010585273616 3.92634683521e-06 -6.32200180917e-06 0.851540565491 -0.826132059097 0.0683040320873 0.649941205978
78.4708333333 0.0136015154421 0.0062269740738 -4.62692423753e-06 1.4069221379e-06 -0.132080405951 -0.431997925043 -0.330081105232 0.0727297067642
78.525 0.0153653807938 0.000256136438111 4.83813437313e-06 -4.08508685723e-06 -0.138537555933 0.762480854988 0.203756347299 -0.0851036980748
78.5791666667 0.0140324318781 -0.00622707093135 -4.47802403869e-06 -2.36522032537e-06 0.40570795536 0.566514015198 -0.531818330288 -1.28340697289
78.6333333333 0.00976122356951 -0.0114428428933 -4.67982999908e-06 -3.18692536894e-06 0.346645772457 -0.728125870228 -0.0637455359101 -0.686748087406
78.6875 0.00376093992963 -0.0134322755039 -2.4917076189e-06 8.57153008837e-06 1.30671215057 0.704418897629 0.904090344906 0.88423460722
78.7416666667 -0.00166304199956 -0.0126564940438 1.96414498532e-06 -7.90615831647e-06 0.836054384708 -0.936029672623 -0.366479635239 0.0431298129261
78.7958333333 -0.0058047012426 -0.0101396758109 -5.0856301641e-06 -2.32449565374e-06 -1.60062015057 -5.20333480835 0.787090599537 -0.954989910126
78.85 -0.00806758832186 -0.00671914359555 -1.73240641743e-06 -3.70859993382e-07 0.376337707043 -0.471633344889 -0.00840037222952 0.188767910004
78.9041666667 -0.00887970067561 -0.00301556708291 -2.69540055342e-06 1.08174776869e-06 0.187851443887 3.71248817444 0.748853623867 -0.110991030931
78.9583333333 -0.00794401858002 -0.000167576217791 -4.20499827669e-06 5.78947128815e-06 0.396123319864 0.815153598785 0.107236891985 -0.384307831526
79.0125 -0.00661860313267 0.0016138877254 -5.99657084877e-07 3.85571775041e-06 -0.311393290758 0.66238462925 -0.603739440441 0.232243984938
79.0666666667 -0.00529398210347 0.00251943012699 -1.21290815969e-06 7.1703670983e-06 0.170905396342 0.214457809925 0.58297252655 -0.0973942801356
79.1208333333 -0.00433293543756 0.00285014836118 -9.20270485949e-06 1.91572007679e-06 -0.414619982243 0.707404255867 -0.215474694967 -0.291839838028
79.175 -0.00385912624188 0.00305823329836 -6.63694572722e-06 5.48663956579e-06 -0.461198180914 -1.11853015423 -0.347759127617 0.83054035902
79.2291666667 -0.00374853261746 0.00363850593567 -4.34547746408e-06 1.47010655382e-06 -0.690208613873 -0.152443394065 -2.09361815453 -1.17120170593
79.2833333333 -0.0035856179893 0.00487473001704 1.9547330794e-06 6.11702671449e-06 0.927061498165 -0.560930371284 1.39797627926 0.500260770321
79.3375 -0.00291038979776 0.00656653987244 -5.28942337041e-06 -2.02824094231e-06 -0.112458989024 0.621901929379 0.142389580607 -0.11309492588
79.3916666667 -0.000257095322013 0.00863853096962 6.07439233136e-06 1.13145461e-06 0.216026008129 -0.155877694488 0.116918474436 -0.451407343149
79.4458333333 0.00282992213033 0.00880490429699 6.57486407363e-06 3.8217291376e-07 -0.420750439167 0.371561735868 0.650194168091 -1.44631910324
79.5 0.00560029456392 0.00785105116665 5.89459250477e-06 -7.80615391704e-06 -2.9881978035 -0.37244489789 0.667180597782 1.29333651066
79.5541666667 0.00797628704458 0.00648210616782 5.92722017245e-07 -1.43670479247e-06 0.179990395904 -0.860152244568 1.04753303528 -0.233653903008
79.6083333333 0.0104803908616 0.00369286956266 1.92722745851e-06 -3.01768318423e-06 1.55880582333 -3.1614356041 -1.88939023018 -0.564845621586
79.6625 0.0116663398221 -0.000243714544922 2.20191668632e-06 5.80543155593e-06 -0.946299374104 -0.0605045035481 0.328727334738 0.345853924751
79.7166666667 0.0110803004354 -0.0044032773003 6.88829413775e-06 -5.02056900586e-06 0.575307250023 0.733290672302 0.839282631874 -0.234691232443
79.7708333333 0.00899604335427 -0.00824020523578 2.97547603623e-06 -3.06405763695e-06 -0.0030894158408 0.113255761564 0.255120664835 -0.179730966687
79.825 0.00570456450805 -0.0109242144972 -1.66948768765e-06 -7.4813547144e-06 0.375002294779 -0.368820726871 0.524958252907 0.0328190326691
79.8791666667 0.00157405657228 -0.0122391534969 2.45472119786e-06 4.04821230404e-06 0.36998513341 -0.0230539031327 -0.870495736599 0.50393474102
79.9333333333 -0.00253851083107 -0.012070809491 1.71114095338e-06 3.28563669427e-06 -0.896645843983 0.585240185261 0.193217664957 0.590860009193
79.9875 -0.00668735755607 -0.010428307578 -2.32874458561e-06 1.88187655681e-07 -0.692143619061 0.19294026494 0.137137845159 0.472462654114
80.0416666667 -0.0101294619963 -0.00660847593099 -2.35132461057e-06 -3.34018000103e-06 -0.517143785954 0.445646107197 1.81877279282 0.395892053843
80.0958333333 -0.0108493966982 -0.00313950632699 -1.15885677587e-06 1.41967882428e-06 0.310485750437 0.439042985439 0.0403108038008 -0.18115913868
80.15 -0.0103092854843 -0.000126740240376 -1.92631068785e-06 9.27638575376e-06 -0.189300060272 -1.81099367142 1.10408473015 -0.489609509706
80.2041666667 -0.00938480999321 0.00199284590781 4.37341759607e-06 -3.49544188794e-06 0.420936405659 -0.2799872756 0.218772500753 0.887403488159
80.2583333333 -0.00839637964964 0.00446067145094 -2.01655939236e-06 -5.31748469257e-07 0.525036454201 3.26479816437 1.29640841484 -1.85138392448
80.3125 -0.00679439911619 0.0065441490151 -8.14590384834e-06 7.95952928456e-07 0.552360832691 -0.239980950952 -0.0159179549664 0.0114182215184
80.3666666667 -0.00452925590798 0.00802930258214 -5.96519214469e-07 -3.40513679475e-06 10.4779901505 -6.40610647202 31.8578891754 -13.4984445572
80.4208333333 -0.00217793509364 0.0086281709373 4.79472510051e-06 1.28445992686e-06 3.13765835762 0.620939016342 -1.46291661263 1.3233782053
80.475 0.000140508142067 0.00917727593333 -6.80367264749e-08 2.05090805139e-06 -0.890019953251 -0.092818275094 -0.133649617434 0.250512033701
80.5291666667 0.00286899576895 0.00882205180824 -3.87470254282e-06 4.86244016429e-06 -0.368405610323 -0.0671566724777 0.12622140348 -0.108573950827
80.5833333333 0.00565454782918 0.00761716021225 3.42315979651e-06 -4.67550580652e-06 -0.707345724106 1.45965981483 0.0986522957683 -0.576080977917
80.6375 0.00766597362235 0.00564763881266 -1.93910682356e-06 -5.94130312948e-07 -0.668208956718 2.11206912994 0.495376884937 1.56733226776
80.6916666667 0.00913750100881 0.00334540521726 -7.83920950198e-06 -6.12158191871e-06 -11.0279607773 1.24935388565 -8.34898853302 -9.5964345932
80.7458333333 0.00992766022682 0.000321610888932 2.66253005066e-06 3.66340259461e-06 -0.191669523716 -0.291161030531 0.0983460694551 0.517086625099
80.8 0.00983612798154 -0.00215776427649 1.37160373015e-06 -5.3293547353e-07 1.14063549042 1.65296435356 -0.0896240100265 0.399204164743
80.8541666667 0.00901060458273 -0.0052335401997 3.84958229915e-06 3.37214964929e-06 1.36448729038 -0.030311178416 0.0104979882017 -0.475865364075
80.9083333333 0.00714877480641 -0.00802938546985 8.01768521796e-07 1.9499134396e-06 0.0862762108445 -0.347195118666 -0.00541890179738 0.354786247015
80.9625 0.00423180591315 -0.00990402884781 2.65244398179e-06 -8.58462863107e-06 0.273798078299 1.4656085968 0.817839622498 0.16276422143
81.0166666667 0.000912462768611 -0.0106789683923 3.45432425775e-07 2.91344827019e-06 -1.50457525253 1.04941928387 -0.731857180595 1.24514079094
81.0708333333 -0.00246766442433 -0.0103778103366 9.77142644842e-06 -6.15551334704e-06 -0.246502995491 -0.397938787937 -0.558096349239 0.182173803449
81.125 -0.00589318340644 -0.00870289094746 -2.68386224889e-06 -2.90449293061e-06 1.09675371647 -0.197498381138 0.678645789623 -0.689022839069
81.1791666667 -0.00790953636169 -0.00680719083175 6.18669128016e-06 2.86397289528e-06 0.0413227938116 0.572663664818 -0.0336548648775 -0.0491002835333
81.2333333333 -0.0094271460548 -0.004232742358 3.84411850973e-06 -8.4635175881e-06 -0.477807819843 -0.417442053556 0.661890864372 0.66101360321
81.2875 -0.0100040407851 -0.00115912791807 -4.588390766e-06 -1.10317641884e-05 0.292757362127 0.0594670772552 -0.209926351905 0.201970368624
81.3416666667 -0.00952010881156 0.00132107094396 4.32924116467e-06 6.43348414542e-07 -0.555722057819 -0.269022792578 0.0169770866632 -0.992932736874
81.3958333333 -0.00885578989983 0.00397194596007 1.96332234736e-06 -1.84142629678e-06 0.52128303051 0.421115547419 0.936980545521 0.782350122929
81.45 -0.00761647522449 0.00630562007427 3.84964550904e-06 -1.32141553877e-06 0.124830968678 -1.04275143147 -0.243949636817 0.487120062113
81.5041666667 -0.00515101058409 0.0084726754576 -7.75731905378e-07 -6.98765916241e-06 -0.232569903135 0.0392088145018 0.398031443357 1.057762146
81.5583333333 -0.00220093666576 0.00930139701813 4.55443023384e-06 -4.04368574891e-06 0.102806374431 0.24334949255 0.41119530797 0.0618588253856
81.6125 0.000419410411268 0.00892967823893 1.02766136933e-06 1.24845018945e-06 1.42349755764 0.531501054764 0.493490874767 0.274466753006
81.6666666667 0.00236931955442 0.00850433018059 2.1902590106e-06 -1.1678367855e-06 0.807045817375 1.34113311768 -0.408514976501 -0.578822731972
81.7208333333 0.00486543215811 0.00773717090487 3.01518457491e-06 8.40754410092e-07 0.906173050404 -0.146303698421 0.352400541306 -0.24392695725
81.775 0.00700971949846 0.00617298902944 1.47617481616e-06 -3.80980463888e-06 -1.19261407852 -0.0335508286953 1.91385281086 -1.31273877621
81.8291666667 0.00818172842264 0.00416437303647 2.81536676994e-06 -4.70320037493e-06 1.20444440842 -0.347372114658 0.00579818803817 0.966704308987
81.8833333333 0.00888663250953 0.00195501325652 -7.29753446649e-06 6.38906840322e-07 0.381236493587 0.42513692379 0.289981037378 -0.232431650162
81.9375 0.00914341770113 -0.000802064547315 3.21118454849e-06 8.19560045784e-06 -0.854595959187 -1.44435501099 0.236158579588 -0.0592205487192
81.9916666667 0.00863748975098 -0.00358391134068 -4.44466152771e-08 7.78529965828e-07 -0.249676898122 0.0371898934245 0.419762521982 0.165394470096
82.0458333333 0.00738785322756 -0.00627972232178 -3.96260134039e-07 9.97209008347e-06 0.276610165834 0.128202140331 -0.132345497608 0.142594054341
82.1 0.00523252040148 -0.00818135030568 -2.93540801977e-06 -6.96879624229e-06 -1.64814198017 -1.24290764332 -0.366131126881 2.28990197182
82.1541666667 0.00238676625304 -0.00946088787168 -6.12480562268e-06 5.84896179134e-06 -0.165878817439 0.150158539414 -0.339373141527 0.19951030612
82.2083333333 -0.00078890635632 -0.00973340589553 5.27196505118e-07 3.42286710975e-07 0.537207663059 0.600946903229 -0.355178505182 -1.17828333378
82.2625 -0.00375112355687 -0.00893757864833 1.35003210744e-05 3.27315478899e-06 -0.0900157243013 0.540272772312 0.675635933876 0.782494485378
82.3166666667 -0.00635341741145 -0.00714387651533 -2.97697806673e-06 5.56658278583e-06 -0.364476919174 0.0795601755381 -1.07566440105 2.21977305412
82.3708333333 -0.00814746692777 -0.00471977237612 1.56295868692e-07 -1.12055806767e-06 1.61392450333 -0.0608200617135 -1.18963956833 0.58054047823
82.425 -0.00899120792747 -0.00187529984396 -9.32105194806e-06 7.3257075428e-07 0.909940600395 0.0853241682053 2.33292388916 -0.258627563715
