!Created with skrf (http://scikit-rf.org).
# GHz S RI R 50.0 
!freq ReS11 ImS11 ReS21 ImS21 ReS12 ImS12 ReS22 ImS22
75.0041666667 0.267240852118 -1.12166619301 5.45271268493e-06 -2.77797971648e-06 -0.11796541512 -1.00826179981 -0.0607354640961 -0.962295174599
75.0583333333 -0.38949534297 -1.05313301086 1.01266971342e-06 3.02837702293e-06 0.361569911242 0.893870651722 -0.00707547459751 -0.167861506343
75.1125 -0.853564441204 -0.675075769424 2.23362371798e-06 -3.18451100156e-07 -0.953270852566 0.404378384352 -0.133910119534 0.138042390347
75.1666666667 -1.07628059387 -0.129914581776 -4.80801145386e-06 -3.51894323103e-06 0.124184094369 0.225204393268 0.583190917969 0.279801934958
75.2208333333 -0.995039105415 0.432718098164 2.87431498691e-06 -2.76536661659e-06 0.474455118179 -1.02753543854 -0.0101099144667 -0.476440787315
75.275 -0.632534384727 0.897332131863 1.46233810483e-06 7.23017683413e-06 -0.108126103878 -0.839468955994 1.06036436558 0.324575513601
75.3291666667 -0.0639377012849 1.1186773777 -7.42758231809e-07 4.71232988275e-06 0.17992426455 0.457992881536 -1.47573304176 -0.922604858875
75.3833333333 0.555654287338 0.995601654053 7.72386101744e-07 5.97584744355e-07 0.106315992773 0.653030335903 0.137088626623 -0.337157934904
75.4375 1.0124361515 0.536129951477 1.49566858454e-06 3.16450518767e-06 -1.17424821854 -0.456242382526 -0.468273341656 -0.739472568035
75.4916666667 1.12210059166 -0.103348955512 8.45682825457e-06 1.75950191306e-07 -0.295974195004 0.349043577909 0.310575157404 1.24088287354
75.5458333333 0.884323894978 -0.677552223206 2.89146646537e-06 1.48927483679e-07 -0.109267570078 -0.365063101053 0.0669440329075 -0.261369019747
75.6 0.360267400742 -1.02219212055 3.77008768737e-06 5.6229514378e-09 0.477316826582 0.0199021007866 -0.562616944313 -0.0444383397698
75.6541666667 -0.21717043221 -1.02945101261 4.71527755508e-07 4.51837053106e-07 -0.10710079968 -0.464432895184 -0.0902407094836 -0.163782984018
75.7083333333 -0.681967079639 -0.76569455862 -7.44439660139e-07 -2.33570773389e-07 0.0106406537816 -0.944630682468 0.252940803766 0.524818122387
75.7625 -0.983630359173 -0.317620426416 -4.24467179982e-06 6.99578322383e-06 -1.1049503088 1.33586645126 -0.545852959156 -0.0972503647208
75.8166666667 -1.00098776817 0.237214878201 1.66648976574e-06 1.35711195526e-06 0.422677278519 -0.0977072194219 0.455716848373 0.738134562969
75.8708333333 -0.736251831055 0.742421269417 4.43872477263e-06 -5.43520400242e-06 -0.317943006754 -0.0312500447035 0.708084702492 0.060939732939
75.925 -0.229139834642 1.01075267792 -1.52218365201e-06 5.70296788283e-06 0.138116776943 0.0993390232325 0.180918633938 0.253862768412
75.9791666667 0.30001437664 0.963973224163 2.65515541287e-06 2.68836697614e-06 1.21664750576 -2.15782666206 -0.37620806694 4.25771760941
76.0333333333 0.792104005814 0.691507160664 -9.99945950753e-06 -5.82200641475e-07 0.25461140275 -0.327476322651 0.00668894872069 -0.232755228877
76.0875 1.04814660549 0.138097837567 3.73894380346e-07 -8.21303183329e-06 0.163469284773 -0.37072750926 0.389200210571 -0.250125676394
76.1416666667 0.952155530453 -0.45764029026 3.11556141241e-06 -3.47261084244e-06 -0.421031445265 -0.149988025427 0.530520737171 0.866327702999
76.1958333333 0.542780101299 -0.879530966282 -8.68048573466e-06 5.55881888431e-06 -0.17690230906 -0.483231753111 1.15408611298 -0.862233579159
76.25 0.0248566456139 -0.993783473969 -3.94981589125e-06 1.42674398376e-05 0.247405305505 -0.204930588603 -0.218684777617 0.233341515064
76.3041666667 -0.503398239613 -0.85140568018 1.02080566649e-05 -6.35641163171e-06 -0.211822718382 -0.594779968262 -0.00884560588747 0.436234563589
76.3583333333 -0.86556237936 -0.443649768829 7.7045906437e-06 7.85900829214e-06 0.422037422657 0.161447152495 0.29698240757 -0.403180450201
76.4125 -0.953682780266 0.0670591816306 -2.86929480353e-06 5.43231908523e-06 0.381303369999 -0.366932600737 0.000503101735376 0.189130395651
76.4666666667 -0.796723902225 0.553899586201 8.66399545885e-07 1.3228050193e-05 0.0596165768802 0.63054895401 -0.603003621101 -0.381666362286
76.5208333333 -0.412958621979 0.875837683678 -1.02922822407e-05 4.88641808261e-06 -3.22938418388 -2.17553305626 -0.0234503429383 -1.67289853096
76.575 0.115534462035 0.980458378792 -2.23080419914e-07 -3.78701520276e-06 -5.46439027786 2.65362024307 -3.19167876244 4.634953022
76.6291666667 0.605377316475 0.772569060326 2.32119850807e-06 3.4403326481e-06 0.532697319984 -0.00961141381413 -0.104539088905 -0.365945160389
76.6833333333 0.916280090809 0.35339397192 -6.54529503663e-06 -3.64067568626e-06 0.848206341267 -0.503244161606 0.579681396484 -0.0946700721979
76.7375 0.960660338402 -0.163950920105 -8.48472336656e-06 3.3937351418e-06 0.332929849625 -0.217116072774 0.605257093906 -0.0357238687575
76.7916666667 0.732084453106 -0.63807040453 6.99630732015e-07 -1.01679897853e-05 0.776107609272 0.663332164288 0.0157542619854 1.02218723297
76.8458333333 0.287637293339 -0.959800004959 2.40326448875e-06 -6.35565584162e-07 -0.45443251729 -0.144736751914 -0.0376557148993 -0.23224888742
76.9 -0.249406114221 -0.947737216949 5.27272959516e-07 -7.09225241735e-06 -0.920824229717 -0.416107475758 0.360458999872 0.529520452023
76.9541666667 -0.710152328014 -0.658234000206 -2.69201990477e-07 5.46597993889e-06 -0.123817794025 0.491501182318 0.52346599102 1.24761152267
77.0083333333 -0.934810101986 -0.211950868368 1.66651523159e-06 -1.20566119222e-05 0.289073616266 -0.105066351593 0.488323152065 0.851638197899
77.0625 -0.911068320274 0.291687607765 -1.47800255945e-05 -2.70540112979e-06 0.357762545347 0.211438834667 0.224638313055 0.47160717845
77.1166666667 -0.655562996864 0.732867002487 7.28811573936e-06 1.53332746322e-06 0.174698174 0.294880568981 0.107823170722 0.544117629528
77.1708333333 -0.201985567808 0.966815829277 2.44743205258e-06 5.60956277695e-06 -1.03382205963 1.43798410892 -0.198756292462 0.233135595918
77.225 0.328814804554 0.946546137333 -1.80049755727e-06 -2.53529196925e-06 -1.37612354755 0.593722105026 -2.46774244308 0.442478328943
77.2791666667 0.765226304531 0.619320273399 1.4368216398e-05 3.66189215129e-06 -0.22250404954 -0.89345228672 0.513923168182 -0.721926391125
77.3333333333 0.969099104404 0.135936066508 3.42254384122e-06 -7.30631518309e-06 0.404401510954 0.153339236975 0.35324165225 0.189421921968
77.3875 0.893338561058 -0.368896275759 4.21114873461e-06 8.7063023102e-07 -0.332081407309 0.51467436552 -0.00226494320668 -0.25166991353
77.4416666667 0.586557030678 -0.76743209362 -6.33118133919e-06 4.09856147598e-06 0.119530774653 1.19043946266 0.581055998802 0.566226482391
77.4958333333 0.102984257042 -0.940425753593 1.4497148868e-06 -2.43059275817e-06 -2.22674632072 0.681642472744 -0.564781904221 0.326986014843
77.55 -0.370110869408 -0.856145143509 4.72866122436e-06 -3.71877558791e-06 -0.243605911732 -0.590117156506 -0.292841255665 -1.34394276142
77.6041666667 -0.73805975914 -0.552683770657 2.622410193e-06 3.17251920023e-06 0.640699088573 -0.408351331949 -1.12926864624 0.299683243036
77.6583333333 -0.917544305325 -0.102104961872 9.37469758355e-06 7.77041532274e-06 -0.454208880663 -1.50165212154 -0.148662477732 -0.637743711472
77.7125 -0.853848338127 0.379659563303 1.56932765094e-05 3.42600998238e-07 1.00006771088 0.125801950693 -0.890597581863 0.939596772194
77.7666666667 -0.565419971943 0.769272685051 -2.01232455765e-06 -1.25807986251e-07 -1.21015357971 0.816175341606 0.927828729153 0.165757864714
77.8208333333 -0.0817822739482 0.953150033951 -7.08879952072e-07 -5.64547448789e-08 0.59961950779 -0.321217447519 0.0811566412449 1.72662889957
77.875 0.430791914463 0.868689000607 -2.65181006398e-06 8.76319518284e-06 0.13721087575 0.85660392046 1.33770239353 1.09940516949
77.9291666667 0.838892817497 0.524291932583 4.5105335289e-07 -1.59313276527e-05 0.790881752968 -1.00037205219 -0.67219889164 0.0138373924419
77.9833333333 0.998176515102 0.015657806769 -2.61794775724e-06 6.46880198474e-06 0.428998857737 -0.595996260643 -0.825370550156 -0.296141296625
78.0375 0.862692534924 -0.520647764206 1.03180616406e-06 -4.91610592235e-07 0.171049460769 0.322958827019 0.14931409061 0.163420632482
78.0916666667 0.4506752491 -0.912041544914 -1.4303396938e-06 1.55651548539e-06 0.0771088153124 0.0178288593888 -0.445715546608 0.316992014647
78.1458333333 -0.091010324657 -1.00575470924 -5.07532945448e-07 -1.09951940885e-06 -2.20182132721 -2.80041980743 0.657523036003 -2.49404120445
78.2 -0.607438027859 -0.810547351837 -2.17383694689e-06 8.82647145772e-06 1.2826384306 -0.493972301483 1.19260060787 -0.283379554749
78.2541666667 -0.936703503132 -0.365048825741 5.38211224921e-06 -1.47130467667e-05 -0.719563305378 -0.0555180422962 0.598312735558 -0.866582393646
78.3083333333 -0.996079862118 0.180948168039 -7.01433282302e-06 4.23674151762e-07 0.536493718624 0.773729801178 1.25713324547 -0.46600997448
78.3625 -0.729749679565 0.669945776463 5.3107896747e-06 1.51686253957e-06 -0.428926467896 0.171367794275 -0.0883053094149 -0.108382686973
78.4166666667 -0.300754904747 0.894642829895 7.97637403593e-06 -5.62772868307e-07 -0.422328799963 -0.548914194107 -0.768050789833 0.242110878229
78.4708333333 0.147428527474 0.94282668829 2.9477107546e-06 1.00124989331e-05 -1.57538557053 0.763568460941 2.14381742477 -0.00206310721114
78.525 0.620002567768 0.779369294643 5.92053766013e-06 -7.69232428866e-06 -0.410675376654 0.640538930893 0.574855923653 0.422745615244
78.5791666667 0.972341775894 0.355210274458 2.7735304684e-06 -4.13624775319e-06 0.438963353634 0.127489373088 -0.93845975399 0.745752453804
78.6333333333 1.04914450645 -0.236194819212 3.08606058752e-06 -4.95318062121e-08 9.65992546082 -3.48970627785 5.61004161835 -2.57097911835
78.6875 0.753340065479 -0.768263339996 -4.53379016108e-06 3.02846456179e-06 0.201398402452 -0.274738669395 -0.39882799983 -0.880634665489
78.7416666667 0.228928312659 -1.04581809044 2.25050393965e-06 -5.89442197452e-06 -0.147341415286 -0.280657738447 0.978061854839 -0.0341021642089
78.7958333333 -0.363740801811 -1.00830566883 -5.27029897057e-07 7.30140143901e-08 -0.429319441319 -0.877607643604 0.936677575111 -0.0156608019024
78.85 -0.820414185524 -0.668998479843 6.57921418679e-06 6.44652288884e-07 -0.245436698198 -0.163061156869 -0.499125629663 0.085475191474
78.9041666667 -1.04121780396 -0.126973941922 2.65295921054e-06 1.08019840184e-07 0.00230385968462 0.964469432831 -0.726458668709 0.820524275303
78.9583333333 -0.923591077328 0.393276780844 7.10104586688e-06 2.61960258285e-06 0.274447709322 -0.0172040164471 0.864156186581 -0.105576589704
79.0125 -0.602787137032 0.781517088413 2.72768033938e-06 -6.09013613939e-06 0.160072490573 0.219677507877 0.704027831554 -0.655050218105
79.0666666667 -0.139198407531 0.967397987843 4.40155645265e-08 2.15341606236e-06 0.210442200303 -0.128050759435 0.363325595856 0.0409392938018
79.1208333333 0.345190286636 0.89678555727 -1.05425679067e-05 -5.07211325385e-06 -0.155969187617 0.388424128294 -0.127352014184 -0.521352231503
79.175 0.718201816082 0.616276204586 -3.0111907563e-06 -2.84509428639e-06 0.43567699194 0.827993571758 -0.286555200815 -0.149160414934
79.2291666667 0.943252682686 0.188427746296 -3.97076064473e-06 2.25483950089e-06 0.322045058012 -0.447772294283 -0.96537810564 -0.0723132193089
79.2833333333 0.943139791489 -0.311769038439 8.43149518914e-06 -1.71831359808e-07 0.409895300865 1.03698134422 0.922555267811 0.809478402138
79.3375 0.711911022663 -0.774193823338 -2.29510942518e-06 1.9185513338e-06 -0.955861210823 0.563546657562 -0.404790878296 -0.330076277256
79.3916666667 0.109524294734 -1.13127088547 6.08748223385e-06 -1.7930311742e-06 0.315173715353 0.730835795403 0.882676303387 -0.835746884346
79.4458333333 -0.51176071167 -0.980355739594 -3.96019504478e-06 -7.05384172761e-06 -0.541974425316 -0.52232426405 0.468177884817 -0.0933542475104
79.5 -0.892365276814 -0.558672428131 6.43767725705e-06 -7.44152293919e-06 3.2146115303 -0.709504961967 1.41422593594 2.02833676338
79.5541666667 -1.02303051949 -0.0854647532105 -2.85537362288e-06 -3.50215850631e-06 0.450551569462 -0.785517990589 1.08608329296 0.344795703888
79.6083333333 -0.924139082432 0.441091299057 1.49256527493e-06 -3.52458482666e-06 2.29687356949 -1.32895672321 -1.80994391441 -0.224892094731
79.6625 -0.56573677063 0.830032169819 6.42783243165e-06 -1.56295322995e-06 -0.681784152985 -0.670799672604 -0.830414414406 0.738066852093
79.7166666667 -0.0849592387676 0.975292146206 6.20513083049e-06 -7.7170784607e-07 -0.426110297441 -0.226393505931 -0.316558867693 1.88810789585
79.7708333333 0.402070820332 0.888851702213 4.72063356938e-06 -3.77584410671e-06 -0.139794752002 -0.128945142031 -0.196891739964 0.284086793661
79.825 0.776723504066 0.595668494701 -1.7440324882e-06 3.93787968278e-06 0.311625182629 -0.355892330408 -0.516173601151 0.691092729568
79.8791666667 0.982325553894 0.155314832926 3.28627288582e-06 -2.66500978796e-06 -0.303190529346 0.354438513517 0.987741053104 -0.531223833561
79.9333333333 0.971753954887 -0.337996959686 -3.98586598749e-06 -6.1444069388e-07 1.28388047218 -0.99269759655 -0.566321730614 0.518677473068
79.9875 0.696564793587 -0.831338524818 1.09132156467e-06 -1.03803331513e-05 0.0548667497933 0.341737180948 -0.134969323874 1.29512953758
80.0416666667 0.088222771883 -1.11439168453 3.03178876493e-06 4.9345521802e-06 0.413250774145 -0.287324458361 0.256559252739 -0.313066154718
80.0958333333 -0.462437480688 -1.00674068928 -1.93778305402e-06 5.79506649956e-06 0.196843668818 0.197573557496 0.12100263685 -0.179600507021
80.15 -0.856450796127 -0.631004154682 2.32328034144e-06 1.13031785531e-06 0.15394641459 -0.705102682114 1.60089957714 -0.792222619057
80.2041666667 -1.00748884678 -0.169896364212 -4.17992350776e-06 6.60632792915e-07 -1.3399964571 0.0356164835393 -0.492462426424 -0.287270098925
80.2583333333 -0.955242872238 0.365236461163 -3.9095602915e-06 3.22996856994e-06 0.319255888462 -1.03606772423 0.318699777126 -0.588649451733
80.3125 -0.635966598988 0.784759104252 -3.66535118701e-06 2.29657734963e-06 -0.694855213165 0.0914298370481 0.480051875114 0.00149800092913
80.3666666667 -0.154907435179 0.961971879005 -9.17142870094e-07 1.81425025403e-06 -0.654220283031 0.16461750865 0.212081238627 0.546343505383
80.4208333333 0.298449575901 0.880575180054 6.57523378322e-06 -5.98219321546e-06 -0.452624201775 -0.820997297764 -0.301031917334 -0.013636874035
80.475 0.688202440739 0.654296994209 -1.72892470118e-07 3.50086202161e-06 0.856538414955 -0.290865331888 1.55246603489 -0.116666704416
80.5291666667 0.913979828358 0.231007859111 5.0604048738e-06 2.40443341681e-06 0.604567945004 -0.0859074145555 0.547481536865 0.0780824646354
80.5833333333 0.923486113548 -0.263388335705 6.76201898386e-06 -7.44837598177e-06 0.264835327864 -0.357243478298 0.526386737823 0.455669015646
80.6375 0.68308109045 -0.688325583935 4.57200758319e-06 -4.23227083957e-06 -0.387189477682 -0.0730439350009 -0.201152458787 -0.407572090626
80.6916666667 0.279014766216 -0.955282986164 6.49371315831e-07 -7.78630510467e-06 0.808917284012 -0.201255977154 0.271615982056 -0.42550650239
80.7458333333 -0.262702524662 -0.985702335835 4.8290658583e-08 1.63627782968e-06 0.189966768026 -0.228352472186 1.15760087967 0.277601629496
80.8 -0.692292332649 -0.770346343517 3.79920265914e-06 -1.12978148081e-06 0.295795768499 0.617703974247 0.214502170682 0.131481170654
80.8541666667 -1.02106285095 -0.311136633158 3.82520147468e-06 1.85952296761e-06 -0.751838386059 -0.967112779617 -0.681571602821 0.982941508293
80.9083333333 -1.0571744442 0.277995079756 -4.53819529866e-06 -4.90776983497e-06 2.58462738991 -2.03056645393 1.90388131142 1.58112430573
80.9625 -0.73577940464 0.780150473118 -3.49559513779e-06 4.27387885793e-06 -3.95192027092 1.73226881027 -2.23364663124 4.24210929871
81.0166666667 -0.228497967124 1.01019752026 -4.29137389801e-06 -5.52096298634e-06 -0.400453746319 -1.08264815807 2.02685070038 0.0570740699768
81.0708333333 0.295839577913 0.957124352455 -1.13211863209e-05 -3.32632725986e-06 0.606758475304 2.78719043732 0.768411815166 1.11711001396
81.125 0.732165932655 0.637219667435 -5.71334112465e-06 -1.09781819901e-06 0.772449195385 -0.641065180302 -0.335205256939 0.284673392773
81.1791666667 0.920244753361 0.250589936972 -4.51943918733e-07 -8.64093635755e-07 0.416894108057 0.398272514343 -0.715528964996 -0.341714709997
81.2333333333 0.936309456825 -0.184307903051 2.49910385719e-06 -7.17186276233e-06 -0.894645929337 -0.370983302593 -0.996157467365 -0.232440918684
81.2875 0.746289253235 -0.600273251534 5.21795664099e-06 5.80832238484e-06 0.136108592153 -0.977809429169 1.07480359077 -0.606369674206
81.3416666667 0.413852423429 -0.84823101759 2.96750272355e-06 6.88184218234e-06 1.36045241356 -0.528634369373 1.00148677826 -0.399012237787
81.3958333333 -0.0248938780278 -1.01075088978 2.17408296521e-06 3.24072243529e-06 0.317699790001 -0.147653758526 -0.77086687088 0.147366270423
81.45 -0.544552743435 -0.940001189709 -4.81220922666e-06 -8.8320721261e-06 1.17189395428 2.64832091331 -0.0913974642754 1.47441983223
81.5041666667 -1.02235746384 -0.526678740978 1.31554418203e-06 -7.45965905935e-07 -0.414456963539 1.12543463707 0.65426325798 0.259617179632
81.5583333333 -1.1395919323 0.102491907775 -3.67918119082e-07 4.91091896038e-06 0.462964713573 -0.0800942331553 -0.0813442468643 0.112374834716
81.6125 -0.892452597618 0.641209959984 -3.89640126741e-06 -1.34205106406e-06 0.208003222942 1.33809101582 0.0231555942446 1.78536880016
81.6666666667 -0.475657314062 0.979384303093 -2.81074221675e-06 -2.75928732663e-06 -0.00666201207787 -0.277775108814 -0.436926156282 -0.965082883835
81.7208333333 0.0941913053393 1.10629534721 1.06332765881e-06 -3.07334630634e-06 0.652028024197 0.485229939222 -0.782973527908 0.710352003574
81.775 0.645055949688 0.911994934082 -5.49435469566e-07 7.51528659748e-07 -0.389341652393 1.24662411213 0.291555434465 -1.66955518723
81.8291666667 0.95441108942 0.483447253704 -4.01257830163e-06 -2.35711695495e-06 -0.847964406013 0.568980753422 3.02061009407 1.03151094913
81.8833333333 1.03407597542 -0.00721396366134 5.62427794648e-06 5.52245353447e-07 -1.05963015556 -0.764082491398 0.449110418558 -1.06078827381
81.9375 0.881253838539 -0.49631357193 -1.85469252756e-06 -2.89988361146e-06 0.636051595211 -0.629217505455 -0.0371287092566 -0.0685218796134
81.9916666667 0.542222082615 -0.854492604733 -6.67500489726e-06 5.86939995628e-06 0.13412553072 -0.747991383076 0.580218195915 -0.658530116081
82.0458333333 0.0712940171361 -1.03514504433 -3.90251534554e-06 -3.19571972796e-06 -0.864302814007 -0.862219929695 -0.33947122097 -0.436924546957
82.1 -0.419471651316 -0.954422593117 6.93008769304e-06 -2.21253617383e-06 0.912000656128 -0.0161947719753 0.12561173737 -0.571455478668
82.1541666667 -0.857462286949 -0.646326899529 7.12688517979e-07 -1.4804443893e-08 0.331604391336 0.32213395834 -0.182316809893 -0.0691408291459
82.2083333333 -1.10385596752 -0.13573884964 1.36846927035e-06 -3.70202724298e-06 -0.220995724201 0.427502930164 0.10831284523 0.405536085367
82.2625 -1.03900051117 0.452838033438 9.58194686973e-06 1.20942320336e-06 0.183153435588 1.68671524525 4.45640563965 -0.287915080786
82.3166666667 -0.648198902607 0.937711954117 3.97874100599e-06 -8.10105859728e-07 1.24581849575 -0.370470762253 -0.0060992683284 0.185916721821
82.3708333333 -0.0471719838679 1.13441705704 -1.62230992373e-06 3.53006294063e-06 0.268354356289 -0.162896752357 1.27402901649 -0.147544234991
82.425 0.520564436913 0.95674264431 2.42020496444e-06 -1.64575544659e-06 0.620741784573 -0.128840535879 0.254245966673 -0.500730574131
82.4791666667 0.899221122265 0.547159194946 -7.38271683076e-06 -9.72110996145e-08 1.42651188374 -0.596501111984 1.6848654747 0.16218906641
82.5333333333 1.03353762627 0.0309820305556 7.05912327703e-07 4.97753808304e-06 -0.139660730958 -0.233801409602 0.739624559879 0.0101139638573
82.5875 0.91468578577 -0.459534794092 6.4842329266e-06 4.87910392621e-06 0.291058838367 -3.00926566124 0.209465280175 -2.49858856201
