!Created with skrf (http://scikit-rf.org).
# GHz S RI R 50.0 
!freq ReS11 ImS11 ReS21 ImS21 ReS12 ImS12 ReS22 ImS22
60.0 -0.057182636112 -0.160984918475 -0.0468572154641 1.67506742477 0.814560173572 -0.854550919011 0.761631129959 -0.290619529833
60.0416666667 -0.145898923278 -0.0731547474861 0.821197807789 1.49995481968 -0.337378108079 -0.807192775291 0.512112967555 -0.737183043279
60.0833333333 -0.137601733208 0.0369986630976 1.3319901228 0.875872373581 0.124796534437 0.193629459486 -0.252647983417 -0.928723108091
60.125 -0.0710116326809 0.113979957998 1.53169572353 0.190826252103 -0.586839140888 0.227963888033 -0.870069268828 0.166928729294
60.1666666667 0.0388274639845 0.129680901766 1.43220078945 -0.516521632671 0.879789096124 0.752523877815 0.690241133802 -0.655710010108
60.2083333333 0.141971096396 0.0466569364071 1.06702744961 -1.15904021263 0.162988119878 -0.910512975868 -0.442539471787 0.555793834452
60.25 0.124857164919 -0.111678518355 0.331631839275 -1.5351805687 0.55138027333 0.430992126593 -0.510860932852 0.124972299016
60.2916666667 -0.0371704399586 -0.187442019582 -0.449331074953 -1.52151417732 0.91276561373 -0.000517147330057 0.893683806709 0.155573534316
60.3333333333 -0.212581783533 -0.0686965510249 -1.32467758656 -1.07497775555 -0.909524489445 -0.600278117438 0.0254356232649 0.952447794156
60.375 -0.163592755795 0.153649494052 -1.62129735947 -0.00353614403866 -0.931885118034 0.897716160958 0.949507063208 0.655688404986
60.4166666667 0.0425520911813 0.210681885481 -1.26037502289 0.946999669075 0.62873463638 0.187577392954 0.190790742448 -0.511284006318
60.4583333333 0.178808137774 0.0709728896618 -0.484209746122 1.49928569794 0.186540592624 0.606488511272 0.254560510671 -0.183802544764
60.5 0.130731225014 -0.0865292623639 0.415385603905 1.48813962936 0.746377330717 -0.0535280183046 -0.785341122075 0.331831007178
60.5416666667 -0.0043376465328 -0.126690417528 1.11934864521 1.05147647858 -0.703830146893 0.884996521512 0.0307758649314 -0.721039446488
60.5833333333 -0.0995298549533 -0.0503740906715 1.55625271797 0.452408492565 0.384001116705 -0.775542513833 -0.0763116444156 -0.647389387887
60.625 -0.0868528261781 0.0751401558518 1.67442405224 -0.501278340816 -0.167424020921 0.7396868458 -0.856137202028 -0.471174603639
60.6666666667 0.0203477051109 0.127386018634 1.0640963316 -1.45420265198 -0.589366178425 0.76446787632 -0.436503667189 0.810679058078
60.7083333333 0.123130090535 0.0932302772999 0.138902425766 -1.73816847801 0.0390573396222 0.121321618225 0.299511564451 0.427666725906
60.75 0.197857379913 -0.01425157208 -0.798494160175 -1.60370230675 -0.0241996202309 0.00931860487929 0.390099797765 0.937778619462
60.7916666667 0.156852439046 -0.172850221395 -1.47643780708 -0.868604660034 0.028385494125 -0.468143728166 0.789064560849 -0.455022452671
60.8333333333 0.00038094073534 -0.265641450882 -1.66514480114 -0.0642699673772 0.26891323822 0.553004037788 0.836542130579 0.181394134898
60.875 -0.208149075508 -0.192336857319 -1.48233604431 0.740822017193 -0.92552654891 -0.73774274147 -0.180953769945 0.767449877307
60.9166666667 -0.275772303343 0.0459103547037 -0.855422437191 1.48065197468 0.85631016513 0.707718443263 0.392262327421 -0.346215622734
60.9583333333 -0.120468243957 0.228646069765 0.0493222735822 1.71389365196 -0.0613768853952 -0.140103823162 0.8437758936 -0.138547166521
61.0 0.121002152562 0.211137995124 0.982786715031 1.46243977547 -0.617397651216 0.35699631352 0.375729200007 -0.780132268453
61.0416666667 0.216777145863 -0.0146330110729 1.61929857731 0.695245444775 0.116636159241 -0.991468481425 -0.811952576186 0.632259538241
61.0833333333 0.0816237255931 -0.177328586578 1.66164016724 -0.125434711576 0.427831786679 0.557017506105 0.00184271657104 -0.960428822164
61.125 -0.101648904383 -0.149274945259 1.35940074921 -0.809829950333 0.248818786485 -0.244650128059 0.532940752653 -0.905199180935
61.1666666667 -0.167050242424 -0.000738765520509 0.819649100304 -1.25917518139 -0.394679218747 0.340935334087 -0.0741797024871 -0.104992684985
61.2083333333 -0.0990144088864 0.122627452016 0.17040373385 -1.49577331543 0.514738173339 -0.83272411513 -0.84932642098 0.221357800598
61.25 0.024128139019 0.156264230609 -0.619931280613 -1.42230129242 -0.485074255553 -0.949869562482 -0.201084597519 -0.630091125105
61.2916666667 0.123001091182 0.099716603756 -1.28526425362 -0.909606516361 0.814503716112 0.259441744971 0.614081390585 0.620216449029
61.3333333333 0.153237491846 -0.00594530627131 -1.55919861794 -0.0552286952734 0.205258906858 0.643851482972 -0.184883905169 -0.607193619757
61.375 0.105835974216 -0.110351510346 -1.40270113945 0.764510691166 -0.270926531811 -0.345895255399 -0.46717677358 0.190099948904
61.4166666667 -0.0220781583339 -0.157226920128 -0.845599293709 1.33792936802 -0.962907678827 0.233537556465 -0.797769881355 0.651024479608
61.4583333333 -0.16075155139 -0.0726946666837 -0.102221280336 1.56893897057 -0.693509048819 -0.42449420741 -0.0516221469023 0.876433892073
61.5 -0.166644111276 0.112190000713 0.683376908302 1.40235221386 0.343298415619 0.994203193191 0.542095430836 0.924453923719
61.5416666667 -0.00239601777866 0.239962249994 1.28452110291 0.88213211298 -0.947757891257 -0.284340704708 0.0894220452746 0.0279515090757
61.5833333333 0.2219299227 0.156952157617 1.56667160988 0.0990389958024 -0.254647163121 -0.247488761973 0.876670824334 0.261509878808
61.625 0.271455585957 -0.0780192762613 1.40845239162 -0.648689508438 -0.444608937693 0.966916919738 0.158930638982 -0.469482559034
61.6666666667 0.105544134974 -0.242020174861 0.908045828342 -1.23010790348 0.206807159443 0.142525660561 -0.951697778961 -0.180763349044
61.7083333333 -0.102237485349 -0.205621033907 0.178645014763 -1.50458228588 0.907985821011 -0.448327963372 -0.544292581139 0.646207508591
61.75 -0.173333480954 -0.0419563241303 -0.661698997021 -1.38613939285 -0.0639110626758 0.0545787964645 0.86609914879 -0.096549310042
61.7916666667 -0.100447386503 0.0835171788931 -1.33180439472 -0.823761463165 -0.106332204008 0.116666405327 -0.326989394657 0.259813575866
61.8333333333 0.014060465619 0.103478178382 -1.65620398521 -0.0392142981291 0.679970937955 -0.241309987678 0.405361773397 -0.97872471808
61.875 0.0867992267013 0.0423012562096 -1.50452196598 0.634411692619 -0.335104639408 0.550921843611 0.845962801564 0.896752263632
61.9166666667 0.0969639644027 -0.0452423878014 -1.03370833397 1.23334145546 0.844764732298 0.856176443757 0.0247179937596 -0.346847204018
61.9583333333 0.0413705259562 -0.125494137406 -0.232641726732 1.55868148804 -0.0821769864719 0.788731529031 0.355546333545 -0.986156079747
62.0 -0.0737219974399 -0.143097922206 0.616879105568 1.3794901371 -0.973431189906 -0.415412965739 -0.65211745535 0.235281468248
62.0416666667 -0.176225095987 -0.064144320786 1.17510962486 0.854524493217 0.8645308897 -0.0160939099573 -0.440978367495 -0.80357494571
62.0833333333 -0.193975374103 0.0875715613365 1.52316451073 0.243733048439 0.530625943262 0.00721201522661 -0.0892474599488 0.411145274522
62.125 -0.0560245364904 0.227865085006 1.47488212585 -0.579631626606 0.417222341806 -0.0169162157642 -0.959950043038 0.475364306621
62.1666666667 0.124751031399 0.186322942376 1.00540041924 -1.19635045528 0.429372148474 0.728896929673 -0.144575048049 -0.72246108731
62.2083333333 0.19238910079 0.0239513237029 0.25142621994 -1.47645819187 -0.0717607634223 -0.580275705567 -0.0598106260688 0.577149831825
62.25 0.0973978862166 -0.112071730196 -0.568489849567 -1.39363312721 0.515600892328 -0.0613513104457 0.195135344427 0.546589775604
62.2916666667 -0.0478406175971 -0.0937069654465 -1.19306361675 -0.922050952911 0.585273217538 -0.23765663899 0.0969025407389 0.822733179293
62.3333333333 -0.0965598449111 0.0269526988268 -1.53055167198 -0.215424478054 0.237202126958 -0.0648254901376 0.542839224123 -0.473609369441
62.375 -0.0115322377533 0.126736789942 -1.4591858387 0.53405636549 -0.522417967919 -0.953952917282 0.878723471999 -0.542821008447
62.4166666667 0.112906031311 0.100129202008 -0.97986215353 1.24604058266 -0.716637996137 -0.733528128063 0.243009024746 -0.458835593029
62.4583333333 0.165594980121 -0.00639644404873 -0.206730306149 1.57780206203 0.371886725752 0.63198185615 0.530259861151 0.274074203268
62.5 0.122627176344 -0.111272387207 0.651261866093 1.43087852001 -0.626344832626 -0.629533820196 0.614191699316 -0.710777373119
62.5416666667 0.0324072465301 -0.15630748868 1.27098703384 0.866550147533 -0.298257791484 0.371984970849 0.954555022381 -0.304597807661
62.5833333333 -0.064436905086 -0.14587597549 1.51435530186 0.119681864977 0.713157868221 0.753920408184 -0.968053537001 -0.232559909494
62.625 -0.143702611327 -0.0691699162126 1.35790455341 -0.612671375275 0.197154207024 -0.624580655499 0.375999420859 0.788111993531
62.6666666667 -0.146245673299 0.0478884391487 0.88395678997 -1.14638710022 -0.250036054815 -0.503330515431 0.22144153059 -0.103988146683
62.7083333333 -0.0571964383125 0.131897181273 0.223742440343 -1.39765179157 -0.719886585346 0.769040013412 -0.969513115535 -0.714158663095
62.75 0.0654965043068 0.115812338889 -0.490967571735 -1.2766340971 0.408843438557 0.622335552154 -0.607942927328 0.25132610642
62.7916666667 0.128235027194 0.000342943763826 -1.11918234825 -0.833566427231 0.828159619657 0.554141895226 0.905456062995 0.346477961325
62.8333333333 0.0644107460976 -0.126424685121 -1.42618477345 -0.196380808949 -0.0862125471679 0.628747885859 0.48411929802 -0.504430801761
62.875 -0.082192234695 -0.126980707049 -1.33931171894 0.567158699036 0.672851163874 -0.20242957268 0.426183864358 -0.843352417535
62.9166666667 -0.163977086544 -0.000895931501873 -0.914756059647 1.14611566067 -0.936461540076 -0.958594031924 -0.251840778652 0.814245574041
62.9583333333 -0.0964210629463 0.12932728231 -0.281798005104 1.52991497517 0.702639554227 0.786830606141 0.244794448373 -0.807674694154
63.0 0.0392893217504 0.141714721918 0.485096544027 1.4797450304 0.5705798711 -0.711630727368 -0.750413243274 -0.031345435783
63.0416666667 0.111317895353 0.040210377425 1.17496013641 1.00525128841 -0.26278791973 -0.864080511143 -0.853158771996 -0.531305258432
63.0833333333 0.0704982876778 -0.056281991303 1.56859242916 0.241416350007 -0.203635049496 0.830380705676 0.504525844159 -0.915766337695
63.125 -0.00728693930432 -0.0618740990758 1.44795525074 -0.460458695889 0.000841656077239 -0.583187613307 -0.586624083945 0.745904225178
63.1666666667 -0.0459255240858 -0.0200577415526 1.01047372818 -1.03328549862 0.122563512583 -0.833330682708 0.691211912913 0.582127950822
63.2083333333 -0.049812451005 0.0270681008697 0.471162557602 -1.3504396677 -0.504849622409 0.19699241989 -0.418793386699 -0.670736679397
63.25 -0.0167828928679 0.0659333020449 -0.128168359399 -1.42912769318 -0.655146439123 -0.560502655854 -0.353360532785 0.730503933633
63.2916666667 0.0320010147989 0.0851375684142 -0.762353122234 -1.2567718029 -0.50590288578 -0.952072423048 0.208469632331 -0.477559828716
63.3333333333 0.105822250247 0.0634089931846 -1.31415343285 -0.703951358795 -0.490051772768 -0.826318264362 -0.195836974791 0.622579904349
63.375 0.152250722051 -0.0312158036977 -1.48340964317 0.0910550951958 0.100145168921 -0.0882687502444 0.553896778042 -0.458714742054
63.4166666667 0.0966551601887 -0.150794774294 -1.23696553707 0.802332401276 -0.31801643517 0.968465261405 0.828260210969 -0.41758298473
63.4583333333 -0.0559262149036 -0.183534160256 -0.742363929749 1.31935453415 -0.453964077103 -0.804158379729 -0.284758481849 -0.718853572183
63.5 -0.175458341837 -0.0820780992508 -0.0936310589314 1.55440914631 -0.103878151382 -0.786810411456 0.359956934824 -0.361150256348
63.5416666667 -0.15893407166 0.0809907391667 0.696608543396 1.38975906372 -0.0903205182592 -0.437549063758 -0.32425037891 0.71071928114
63.5833333333 -0.0254771132022 0.162234783173 1.34302866459 0.827313005924 -0.794203816273 0.0629357091372 -0.828020622154 -0.79670177435
63.625 0.108308665454 0.0910198241472 1.58076310158 -0.0659971907735 -0.988036535388 0.61704282369 -0.151003165239 0.0662594878794
63.6666666667 0.111181564629 -0.0391830503941 1.32100224495 -0.803996086121 0.352863910103 -0.3755600807 0.173176272555 0.461755190437
63.7083333333 0.019348513335 -0.10689445585 0.819526910782 -1.31488752365 0.161936314288 0.578349705682 0.0185724449593 0.993564468313
63.75 -0.078202702105 -0.0762510150671 0.222569033504 -1.51708102226 -0.277004936419 -0.440964951462 -0.259689877182 0.611987753847
63.7916666667 -0.115814700723 0.0107606193051 -0.542377829552 -1.49734985828 -0.702362647917 0.180403241878 -0.74392704868 0.79336707442
63.8333333333 -0.079075217247 0.0861085653305 -1.12907671928 -1.10564553738 -0.0902616247579 0.440069469902 0.513815732801 0.00787015724878
63.875 -0.0106959771365 0.104974776506 -1.48035824299 -0.464952915907 0.972167674637 0.367577578113 0.126484717818 0.622262286998
63.9166666667 0.0395991541445 0.091501660645 -1.54944562912 0.305081784725 0.595226147032 -0.0748910143052 0.0880736378834 0.421008048065
63.9583333333 0.0941552966833 0.0659109055996 -1.24671518803 1.04230260849 -0.345040673567 0.448959690828 -0.946210178724 -0.620139527458
64.0 0.120239630342 -0.0129742119461 -0.602643430233 1.42408001423 -0.465074192164 -0.00218675471594 0.0470933507354 0.296572251658
64.0416666667 0.0691956430674 -0.10582062602 0.154603332281 1.51091480255 0.107760773789 0.796999800974 -0.482246385336 -0.820454802326
64.0833333333 -0.0565266758204 -0.113715916872 0.899725794792 1.17019736767 -0.887319554992 0.772401990914 -0.405044151981 -0.313785417576
64.125 -0.128910660744 0.00374264456332 1.37008738518 0.465022027493 -0.650292467349 -0.381508249129 -0.386150879809 0.525304501642
64.1666666667 -0.0543176531792 0.129737898707 1.46298623085 -0.350531607866 -0.487179552851 0.526457082897 0.369176224455 0.405473264261
64.2083333333 0.0936629325151 0.124029934406 1.19805836678 -1.02812457085 0.801569093002 0.853347051244 0.238850697195 -0.0370151516
64.25 0.161273807287 -0.0030630051624 0.651742994785 -1.46779310703 0.773732643915 -0.601610976579 -0.640270502995 -0.29390176501
64.2916666667 0.0965521410108 -0.140789687634 -0.0714238956571 -1.58570683002 0.922474665358 0.235380858858 0.436999208936 0.530982557473
64.3333333333 -0.047781303525 -0.15634521842 -0.762544214725 -1.3623020649 0.843561945334 0.493525147809 -0.751598054158 -0.871139150613
64.375 -0.149357959628 -0.0558977052569 -1.37499284744 -0.706710338593 -0.792247956805 0.64685805255 0.484920866523 -0.34421280968
64.4166666667 -0.123151727021 0.0697099044919 -1.55298900604 0.0970069691539 0.736835738127 0.512985074457 -0.572470495558 -0.164401238567
64.4583333333 -0.0305032655597 0.113195337355 -1.26983952522 0.812345266342 -0.0240611493738 -0.182724095699 -0.555192797889 -0.498973665844
64.5 0.0462121106684 0.0885111838579 -0.683618426323 1.16104435921 0.179285845093 -0.0843811311111 0.143163580837 -0.926167184507
64.5416666667 0.0668379440904 0.0331416390836 -0.0566445440054 1.32410168648 -0.312495665515 -0.289220860093 -0.12369626175 -0.753078666678
64.5833333333 0.0754086971283 -0.00486224424094 0.667216479778 1.38613831997 0.241381963222 -0.259520441952 0.679053428855 0.00482413466531
64.625 0.0755312293768 -0.0701565518975 1.39608442783 0.968783140182 0.0131581357163 -0.0375488322619 0.94280416291 -0.607727609862
64.6666666667 -0.00168966536876 -0.132823452353 1.77555704117 0.162435114384 0.344037490051 0.81257474175 -0.809001227804 0.878305393556
64.7083333333 -0.121082417667 -0.09777212888 1.65849792957 -0.708600878716 0.633162830269 -0.828092382864 0.38802753919 -0.279475263828
64.75 -0.15621547401 0.027511915192 1.15485215187 -1.28613805771 0.354115709732 0.938528153827 -0.480007217004 0.884730086651
64.7916666667 -0.075491450727 0.131522536278 0.506005525589 -1.55775022507 0.604367259618 -0.0709355907013 0.303677714992 -0.716205184983
64.8333333333 0.0598298870027 0.123430520296 -0.204849913716 -1.52593398094 0.646765371455 0.688441914594 0.0154241550765 0.437173441507
64.875 0.13398887217 0.00243396591395 -0.994362592697 -1.22270417213 0.651686615098 -0.798627072627 -0.67574443162 0.529032369105
64.9166666667 0.0540801547468 -0.109579831362 -1.4616754055 -0.484777897596 0.60454568005 0.520735614893 -0.748611820827 0.411379751373
64.9583333333 -0.0621850341558 -0.0911837890744 -1.37301635742 0.193729266524 0.00616890081817 0.940664171849 -0.78309196548 -0.172821092457
65.0 -0.107673287392 0.000557879626285 -1.20802891254 0.77509611845 0.828800298816 0.72448578727 0.868579306124 0.0822988019433
65.0416666667 -0.0671273842454 0.0868179649115 -0.870774209499 1.23321151733 -0.728330291601 0.871883791887 -0.464285114294 0.198024852305
65.0833333333 0.0160820148885 0.105957873166 -0.345117747784 1.48471057415 -0.507305568844 -0.064013852766 0.348068247899 -0.970696820552
65.125 0.0720956847072 0.0598036237061 0.365149527788 1.46118938923 0.661879546143 -0.889266112431 -0.915754257223 0.386469699307
65.1666666667 0.0768717750907 -0.000393240770791 1.08307504654 1.01312100887 -0.646325428156 0.300235009163 -0.789914591986 -0.316147824336
65.2083333333 0.0551223494112 -0.0333410091698 1.48299264908 0.355865269899 0.166954704253 -0.259223168667 -0.10928540216 0.0747118286152
65.25 0.0273886602372 -0.0510353110731 1.47451555729 -0.305774152279 0.885657967584 -0.913982859834 -0.392820970016 -0.365467696411
65.2916666667 -0.0148350410163 -0.063455298543 1.19202780724 -1.00803053379 -0.721449614797 0.382340412497 -0.151278030144 0.702487043577
65.3333333333 -0.0675580278039 -0.0372002795339 0.593740284443 -1.4429346323 -0.606311815816 -0.2852314694 -0.0334006190839 -0.105874163666
65.375 -0.0836490616202 0.0379921533167 -0.154062256217 -1.55306971073 0.669839986597 -0.0282535265422 0.454071647794 0.0527522894099
65.4166666667 -0.0207554828376 0.106066726148 -0.861950278282 -1.28216910362 -0.778370001058 -0.666256518505 0.1719557957 -0.979191586592
65.4583333333 0.0885100662708 0.0926359370351 -1.33699071407 -0.701831579208 0.310306105137 -0.81051724919 -0.836215223416 -0.286014363597
65.5 0.135359823704 -0.0193942785263 -1.46087968349 -0.0521698631346 -0.376940740785 -0.209953634765 -0.19849754085 -0.948939559579
65.5416666667 0.0612386986613 -0.127646207809 -1.4008307457 0.633769214153 -0.880985541556 -0.387467042913 -0.608714768773 -0.995056183755
65.5833333333 -0.0598869733512 -0.127239972353 -1.0276979208 1.24187779427 -0.570106769839 0.329758206755 -0.604922331505 0.193024104182
65.625 -0.124661177397 -0.0396912842989 -0.347922086716 1.6209911108 -0.456329637735 -0.46094440432 0.93903037202 0.442280741677
65.6666666667 -0.0909926220775 0.0606852658093 0.521215438843 1.60607898235 0.193602879157 0.764297846795 0.972574741898 -0.81780832939
65.7083333333 -0.00591558776796 0.081870354712 1.29318022728 1.1049798727 0.950088893629 -0.462510674962 -0.0545400478437 0.780965672158
65.75 0.0484398566186 0.0417672172189 1.74546313286 0.369672328234 -0.252507084659 -0.589982366469 0.129698828185 0.310022625076
65.7916666667 0.0565436631441 -0.012068849057 1.74171376228 -0.349863737822 -0.257175741898 -0.869938726923 -0.815774622921 0.958773257079
65.8333333333 0.0258048977703 -0.0544239059091 1.38117873669 -1.06847083569 -0.654839458866 -0.978081496862 0.0957345695844 0.393518629989
65.875 -0.0240408219397 -0.0669834241271 0.73973596096 -1.56512928009 -0.00987913030863 0.874174871067 0.174278362299 -0.998827713892
65.9166666667 -0.0748666152358 -0.043042935431 -0.0881937593222 -1.77168023586 -0.859737516887 -0.820941497421 0.0999200830245 -0.418573917284
65.9583333333 -0.0980286747217 0.0221830531955 -0.958710134029 -1.39702260494 -0.534583606885 -0.739865545103 0.820747537449 -0.0418871094504
66.0 -0.059575907886 0.0800944417715 -1.39205563068 -0.782796084881 0.42090694302 -0.851331774929 -0.348746524161 -0.268077234883
66.0416666667 0.00384462997317 0.0982221215963 -1.57719755173 -0.0993320420384 -0.198132044293 0.518486987921 -0.0138538154596 0.409043881235
