!Created with skrf (http://scikit-rf.org).
# GHz S RI R 50.0 
!freq ReS11 ImS11 ReS21 ImS21 ReS12 ImS12 ReS22 ImS22
75.0041666667 -0.0230739805847 0.0117792496458 -0.748304903507 -0.357921481133 0.595486760139 0.522342145443 -0.00637824321166 0.33152654767
75.0583333333 -0.0178071204573 0.017876137048 -0.552073359489 0.610712468624 -1.91590166092 -2.87597465515 -2.86100149155 -2.66372609138
75.1125 -0.0127232735977 0.0221995972097 0.349410504103 0.714075982571 -0.263932734728 0.119083605707 0.623898088932 -0.662889242172
75.1666666667 -0.00610802508891 0.0273760799319 0.766650557518 0.110737591982 -0.0693095251918 0.50800549984 1.73259997368 0.141306877136
75.2208333333 0.00364720472135 0.0306425560266 0.523862063885 -0.553067445755 -0.760331869125 0.440015137196 -0.0233345795423 -1.85739374161
75.275 0.0160831362009 0.0294130835682 -0.348602771759 -0.668393135071 0.260237276554 1.70115542412 0.19051669538 -0.449039727449
75.3291666667 0.0282678660005 0.0218599271029 -0.708301365376 0.205986991525 -0.093419380486 -0.214118778706 0.286823093891 0.00209701387212
75.3833333333 0.0357667803764 0.00831867475063 -0.0873073413968 0.717360079288 1.67450118065 0.697710692883 1.99821317196 -0.942235589027
75.4375 0.0354678221047 -0.00732612516731 0.521312236786 0.471845507622 0.456912755966 0.650709688663 0.189030468464 -1.06002390385
75.4916666667 0.0281556788832 -0.0200746562332 0.636775672436 -0.245534822345 0.254005581141 0.0572723597288 -0.302381038666 -0.108246780932
75.5458333333 0.0175100881606 -0.0281698927283 -0.113054223359 -0.682010173798 -0.865232110023 -0.45487177372 1.47524106503 1.78941106796
75.6 0.00493916263804 -0.0305682867765 -0.679333746433 -0.0218480508775 0.0123084727675 0.387512624264 -1.5280687809 1.04252362251
75.6541666667 -0.00594017654657 -0.0283728949726 -0.367046266794 0.541060447693 -0.0916865095496 -0.397208809853 -0.732977211475 -0.334445595741
75.7083333333 -0.0140010314062 -0.0230556521565 0.174213826656 0.634685277939 0.428574800491 -0.220128431916 -0.335395663977 0.268791377544
75.7625 -0.0197865385562 -0.0165177751333 0.651600956917 0.112673781812 -0.621569752693 0.270338058472 -0.0339307934046 1.41943645477
75.8166666667 -0.022738493979 -0.00861816573888 0.242691338062 -0.614456355572 0.257330805063 -0.24070726335 0.0895616859198 0.0420813821256
75.8708333333 -0.0232338383794 -0.00104493869003 -0.476601183414 -0.452318578959 0.523442864418 -0.00229856232181 0.0374656170607 0.771539270878
75.925 -0.0218657385558 0.00541225960478 -0.654937207699 0.119377031922 -0.32325309515 0.443123102188 -1.20606827736 0.605833888054
75.9791666667 -0.019200515002 0.0108871534467 -0.235486924648 0.603649497032 -0.722073316574 -0.378959000111 -0.252465188503 2.34121441841
76.0333333333 -0.0157656520605 0.0171320978552 0.498334228992 0.40709105134 0.911044120789 0.0275015365332 -0.797507107258 0.143641069531
76.0875 -0.0086534190923 0.02258281596 0.541497409344 -0.350782096386 0.497334867716 -0.173118457198 -0.0297583583742 0.171137616038
76.1416666667 0.00135485187639 0.0243367869407 -0.00503226183355 -0.647012710571 -0.0040272846818 0.323599427938 1.33745336533 0.0426087155938
76.1958333333 0.0107815880328 0.0199703928083 -0.509559571743 -0.394147068262 -2.91739821434 5.53813266754 -2.97573757172 -0.296436429024
76.25 0.0151866758242 0.0124935982749 -0.596372008324 0.275986135006 -0.106757901609 0.262033879757 -0.631337285042 -0.182142212987
76.3041666667 0.015572598204 0.00482407677919 0.0868328586221 0.649588227272 0.28970927 -0.198702394962 0.698224842548 -0.0880374014378
76.3583333333 0.0119100222364 0.000381981633836 0.63252300024 0.173797160387 -0.821861386299 1.3761074543 -1.27683413029 -1.29619002342
76.4125 0.00925955176353 0.000730926578399 0.488866329193 -0.413546323776 -0.923124372959 -2.63416218758 0.919899761677 -0.687693417072
76.4666666667 0.0107254628092 0.00225356244482 -0.0948231518269 -0.636971771717 -0.115635029972 -0.459078282118 0.846625089645 -0.519170761108
76.5208333333 0.0152271334082 0.000613297394011 -0.63142567873 -0.124509200454 0.755247294903 0.879698097706 0.104615561664 0.684993505478
76.575 0.0187677461654 -0.00691646896303 -0.280074030161 0.575181186199 0.351578354836 -0.973930180073 -0.228820517659 -1.36361598969
76.6291666667 0.0156919974834 -0.0167108215392 0.423111259937 0.46604475379 0.60954785347 -0.10860170424 -0.0757068395615 0.042157523334
76.6833333333 0.00681220972911 -0.023112019524 0.609299898148 -0.14047563076 0.346484541893 1.5412940979 -0.925359547138 0.476060688496
76.7375 -0.00415626494214 -0.023132128641 0.153093650937 -0.6196154356 -2.82382297516 1.367654562 0.13373939693 0.132049828768
76.7916666667 -0.0125482855365 -0.0173425711691 -0.52784961462 -0.371005266905 -0.0767404139042 -0.0101115200669 1.07148349285 -0.119139097631
76.8458333333 -0.0162676200271 -0.0100541496649 -0.531702578068 0.351414859295 0.0852253511548 0.366372078657 -0.267722934484 -0.74294346571
76.9 -0.0153952939436 -0.00458942027763 0.0986592918634 0.617064595222 -0.654686808586 -0.181928664446 -0.70641541481 0.995407342911
76.9541666667 -0.0152816204354 -0.00170822802465 0.585568249226 0.186770960689 0.891892552376 0.166043847799 -0.281257361174 -0.172490134835
77.0083333333 -0.0174028147012 0.00113895675167 0.417668640614 -0.441809654236 -0.239494159818 0.143011465669 0.68927359581 0.503200829029
77.0625 -0.0194449499249 0.00834471173584 -0.220176696777 -0.547423422337 0.980051994324 -0.525707602501 0.255548894405 -3.7906396389
77.1166666667 -0.01611299254 0.0187749732286 0.289195299149 -0.527709245682 -0.076647542417 0.461350381374 -0.431461334229 0.801582157612
77.1708333333 -0.00598378619179 0.0261281765997 -0.278908878565 -0.537656486034 0.270214140415 -0.425869703293 0.754908621311 -0.0114441765472
77.225 0.00854272209108 0.0263282749802 -0.58705842495 -0.0386722423136 0.0858468860388 0.0176213309169 -0.194265976548 0.296751797199
77.2791666667 0.019988598302 0.0163861662149 -0.300559580326 0.507243692875 -0.0575720369816 -0.000514281739015 0.616416454315 0.274169325829
77.3333333333 0.0227157156914 0.00262094894424 0.340749174356 0.479257792234 0.893019616604 0.743283450603 0.94831007719 0.0555215254426
77.3875 0.0162266734987 -0.00797710195184 0.579558610916 -0.0593493506312 0.17447951436 0.83347851038 1.20881986618 -0.5804489851
77.4416666667 0.00637326063588 -0.01066918578 0.267768442631 -0.527555942535 -0.214025512338 -1.01089167595 0.492202818394 0.273748338223
77.4958333333 -0.000284813635517 -0.0056267073378 -0.322689056396 -0.485635727644 1.42485821247 -0.749085307121 0.143753245473 -0.59185475111
77.55 0.00127777026501 0.000604605826084 -0.58414888382 0.0882456377149 0.582770586014 -0.0540265999734 0.587289750576 0.469502836466
77.6041666667 0.00767604401335 0.000979591626674 -0.175383791327 0.571245372295 0.208775430918 0.0786151811481 -0.010113960132 0.750784039497
77.6583333333 0.0114746103063 -0.00618446432054 0.375213444233 0.466365873814 -1.26322138309 0.652349770069 0.172893226147 -2.05059885979
77.7125 0.00714756269008 -0.015333853662 0.585999071598 -0.0270178951323 -0.214931830764 0.348557889462 0.320035427809 0.0675856471062
77.7666666667 -0.00399870146066 -0.0185751635581 0.293628185987 -0.515370845795 0.286933213472 0.376619100571 0.612885832787 0.739278435707
77.8208333333 -0.01458623074 -0.0114654786885 -0.319834440947 -0.502271711826 0.212953463197 -0.777159273624 -0.0356108397245 -0.249071314931
77.875 -0.016342708841 0.000757511064876 -0.603547871113 -0.0159251522273 0.0269558448344 0.0519459806383 0.357723116875 0.235043510795
77.9291666667 -0.00875083729625 0.00939918961376 -0.402219861746 0.454223483801 0.445571839809 0.205324441195 1.18208920956 1.45330822468
77.9833333333 0.00155628682114 0.00845074560493 0.114539548755 0.590628623962 1.24249339104 -0.62013655901 1.00719332695 0.296834081411
78.0375 0.00606572441757 0.000149370083818 0.572321593761 0.204963520169 -0.764144361019 -0.9225679636 -0.971994280815 -1.79524040222
78.0916666667 0.00133803370409 -0.00804882124066 0.498803347349 -0.342996150255 0.194248363376 0.692473590374 -0.676203072071 -0.526103138924
78.1458333333 -0.00860534701496 -0.00864640250802 0.0551347918808 -0.622569084167 -6.64892482758 3.39752411842 -7.73907899857 2.97040486336
78.2 -0.0163528379053 -0.000415608345065 -0.489236921072 -0.407811194658 0.348328799009 0.344348073006 0.256029427052 0.428175806999
78.2541666667 -0.0149357840419 0.0120553672314 -0.573923051357 0.256117552519 -0.522598862648 -0.328847527504 -0.52765083313 0.369849979877
78.3083333333 -0.0045740143396 0.0202203895897 -0.0521441735327 0.638043284416 -1.19491922855 0.178549125791 1.75043296814 1.4575625658
78.3625 0.00834669545293 0.0175368320197 0.48743802309 0.427854657173 0.0891801565886 -0.4110250175 0.219334691763 0.117569103837
78.4166666667 0.0132416952401 0.00861340854317 0.641340911388 -0.0781279057264 -0.306527167559 4.0764040947 -5.73541927338 8.49845790863
78.4708333333 0.0121684391052 0.00176736724097 0.272066086531 -0.612077116966 -0.745855987072 -0.524598419666 0.146326109767 -0.614091157913
78.525 0.00873656850308 -0.000998368370347 -0.494044333696 -0.492518335581 0.910161554813 -0.545174181461 -0.422918468714 1.42511332035
78.5791666667 0.0074679790996 0.000206252516364 -0.655532836914 0.219688087702 -0.788434445858 0.505731284618 -0.155294924974 -0.386133998632
78.6333333333 0.0114378966391 5.53658246645e-05 -0.232367128134 0.650743663311 -0.0592439956963 0.182870209217 -0.0114883203059 0.75051599741
78.6875 0.0151853170246 -0.00667363032699 0.383898049593 0.527405798435 0.169743508101 1.07017362118 0.0787241011858 0.233458042145
78.7416666667 0.012264881283 -0.0167404394597 0.641117274761 -0.105632819235 0.361156284809 0.410933583975 0.951017796993 0.204772174358
78.7958333333 0.00137788907159 -0.0241936016828 0.121181346476 -0.649312496185 0.243721485138 -0.0659641996026 0.40068474412 -0.12166249752
78.85 -0.01343156863 -0.0224166233093 -0.495608985424 -0.434100717306 1.08780741692 0.221151649952 0.796007990837 0.109364181757
78.9041666667 -0.0243494026363 -0.00962624419481 -0.659430503845 0.130133524537 -1.69232237339 -1.83574557304 -5.33711385727 -4.34037685394
78.9583333333 -0.0229674112052 0.00603029830381 -0.241565957665 0.631858468056 1.56206941605 -0.242688447237 1.31953954697 0.722122013569
79.0125 -0.0124598909169 0.016342876479 0.442900806665 0.501969516277 -0.62479954958 -0.0166136547923 -0.194092527032 0.535612940788
79.0666666667 0.00116127775982 0.0159633308649 0.662448167801 -0.108123905957 1.23038291931 -8.91516208649 3.91698884964 5.15524816513
79.1208333333 0.00846269074827 0.00662040850148 0.336260795593 -0.581384658813 0.629290163517 -0.0651384294033 0.31332808733 -0.635814189911
79.175 0.00583379296586 -0.00296084722504 -0.266259163618 -0.618573188782 0.346155375242 0.660452067852 -0.709720909595 -0.705196082592
79.2291666667 -0.00233393348753 -0.00599260954186 -0.66445505619 -0.107508681715 -0.97321844101 0.460068672895 0.701387465 -0.478148251772
79.2833333333 -0.00935884471983 -0.00102438265458 -0.458159208298 0.48022916913 -2.33751487732 0.473637491465 -0.936069250107 2.2290854454
79.3375 -0.00988218560815 0.00765808764845 0.0922525301576 0.679174661636 -0.789002895355 1.25671887398 -1.85189437866 -0.616835653782
79.3916666667 -0.00212890724652 0.0150465965271 0.688796699047 0.362644910812 0.0921112298965 0.117962554097 0.940065562725 0.123520947993
79.4458333333 0.00739847356454 0.0131034879014 0.583382368088 -0.507171273232 0.815247893333 -0.824330627918 0.756287992001 -0.200490310788
79.5 0.011795816943 0.00639063958079 -0.142180263996 -0.701878666878 0.125927299261 0.471969872713 0.127533629537 -0.0860937610269
79.5541666667 0.0111677478999 0.000350859307218 -0.610078811646 -0.339490920305 -0.133186519146 0.177487999201 0.933704674244 1.11569333076
79.6083333333 0.00778430840001 -0.0034750958439 -0.655449569225 0.256635546684 -0.947131693363 0.900718569756 -0.135348811746 -0.137099012733
79.6625 0.0039745317772 -0.00368623668328 -0.175176665187 0.693826675415 0.566236436367 -0.196969598532 -0.207420632243 -0.42217373848
79.7166666667 0.00260055717081 -0.00137502327561 0.532040059566 0.479314059019 0.240316420794 0.0291392877698 -0.208035930991 -0.333347946405
79.7708333333 0.00470484793186 0.000148093546159 0.657048523426 -0.288165926933 0.614382445812 0.186849907041 -0.0705111026764 0.188425943255
79.825 0.00804445054382 -0.00177524005994 0.0301092397422 -0.716421186924 0.691448271275 -0.251295387745 0.814285039902 -0.123390175402
79.8791666667 0.00905785057694 -0.00699158478528 -0.619793951511 -0.375599652529 0.173126593232 -0.43141040206 -0.128449097276 -0.296611756086
79.9333333333 0.00601906888187 -0.0125677399337 -0.671103179455 0.327930539846 0.686230659485 -0.420144826174 0.103715859354 0.126053392887
79.9875 -0.000695704715326 -0.0155004607514 -0.155413478613 0.713273584843 -0.691179692745 0.162172213197 0.0327702760696 -0.0675655826926
80.0416666667 -0.00869840011001 -0.0133625017479 0.476501464844 0.53293299675 0.932537317276 -0.509862542152 1.28832423687 0.306726485491
80.0958333333 -0.0123219750822 -0.00865038018674 0.684084951878 -0.127458021045 0.186797052622 -0.07988075912 0.438901603222 -0.452501326799
80.15 -0.0130010386929 -0.00408371910453 0.268018096685 -0.626084923744 0.111790262163 -0.704018354416 0.521912992001 0.219286501408
80.2041666667 -0.0128678157926 -0.00131232675631 -0.326273918152 -0.60138386488 -0.0480362251401 0.476480722427 -0.618846237659 0.619636654854
80.2583333333 -0.0138773806393 0.00220848200843 -0.674516201019 -0.0373704172671 -0.216664925218 0.69495600462 1.05118668079 0.544663608074
80.3125 -0.0140809230506 0.00752738211304 -0.313715070486 0.63166975975 0.170796766877 1.40563440323 0.374942272902 1.23421442509
80.3666666667 -0.0111800543964 0.0137521354482 0.363324224949 0.572493135929 -0.0382706485689 0.652496218681 0.49091976881 0.401310384274
80.4208333333 -0.00452820118517 0.018138024956 0.675741493702 0.00569143798202 0.66058665514 1.7482997179 0.800537705421 2.69501447678
80.475 0.00457577919587 0.0195269379765 0.376473248005 -0.557228505611 -0.298962712288 0.660874783993 -0.132451236248 -0.189937725663
80.5291666667 0.0137054789811 0.0142775746062 -0.374828398228 -0.555911779404 0.0264762416482 0.0466984957457 -0.351724326611 -0.23467284441
80.5833333333 0.0183260478079 0.00441991211846 -0.661966919899 0.179213374853 -0.418493509293 1.3518153429 1.09109199047 -0.0075376406312
80.6375 0.0152453780174 -0.00513055082411 -0.149531140924 0.645173549652 0.333993256092 -0.581507861614 0.921321451664 0.375022888184
80.6916666667 0.00825636740774 -0.00988251902163 0.400284975767 0.504443645477 -1.5870206356 -0.0250483136624 -0.791223883629 -1.82449185848
80.7458333333 0.00107515626587 -0.00865864101797 0.644312024117 -0.0609102547169 -2.29565787315 0.274112433195 -0.799152135849 -0.0358689278364
80.8 -0.00201319740154 -0.0044758268632 0.218150168657 -0.623511195183 0.538295149803 -0.245456412435 -0.63078981638 -0.140900820494
80.8541666667 -0.00106164300814 9.94420552161e-05 -0.496985465288 -0.421521753073 -0.251207470894 -0.374212086201 0.215566188097 -0.665183782578
80.9083333333 0.00275502353907 0.00218383269385 -0.63228815794 0.204608932137 -2.06620144844 -0.980251371861 0.335044950247 0.211578026414
80.9625 0.00785941723734 0.000127244580653 -0.231446862221 0.605463087559 -0.0700367689133 0.647189974785 0.142973780632 0.534132480621
81.0166666667 0.00950970221311 -0.00668613985181 0.373797118664 0.5447229743 -0.597251832485 0.610162258148 -0.413260877132 0.461826980114
81.0708333333 0.00451630726457 -0.012637052685 0.663126587868 -0.079528927803 0.855398058891 -0.0389081314206 -0.641555070877 0.118256866932
81.125 -0.00367832323536 -0.0138306226581 0.266821742058 -0.623379349709 0.0278093591332 -0.0360587760806 0.420056134462 -0.147176370025
81.1791666667 -0.00980341713876 -0.0105076627806 -0.368297070265 -0.577893435955 -1.24047458172 0.72049498558 0.479218959808 -1.12227249146
81.2333333333 -0.0123076839373 -0.00370995537378 -0.676664412022 -0.0646276473999 -0.6257340312 0.808328330517 0.618696451187 -0.403532385826
81.2875 -0.00979450624436 0.00153020117432 -0.439316779375 0.523974537849 -2.76404762268 2.01652908325 -0.19428601861 -1.07057905197
81.3416666667 -0.00756576331332 -0.000645454099867 0.612960994244 -0.277249455452 0.654337048531 -0.315830737352 0.416469365358 -0.0486625880003
81.3958333333 -0.00797019340098 0.00391312548891 0.390815228224 -0.570495963097 0.136805668473 -0.406219780445 0.136603817344 -0.560198307037
81.45 -0.00549645395949 0.00436794199049 0.0128386719152 -0.691044747829 -0.632824003696 -0.0567352734506 -0.752634584904 -0.337546110153
81.5041666667 -0.00740449922159 0.00417050486431 -0.380784094334 -0.586706399918 0.458483040333 0.872696697712 0.0983421131968 0.900108635426
81.5583333333 -0.00888849515468 0.00873475149274 -0.621856153011 -0.292597532272 0.272305309772 -0.263206392527 0.285337001085 0.19281950593
81.6125 -0.0039771925658 0.0116259902716 -0.689417243004 0.0589919239283 -2.41473913193 -0.371055990458 1.63997173309 -2.27482843399
81.6666666667 -0.000280510110315 0.0108854677528 -0.576924026012 0.425430595875 0.850985646248 -0.243368625641 -0.434768170118 -0.726489126682
81.7208333333 0.0027425524313 0.0118646156043 -0.280466467142 0.652719736099 0.362389653921 0.0479237288237 0.854570269585 0.255070537329
81.775 0.00891545135528 0.0132199386135 0.105173043907 0.711607575417 -0.112963952124 -0.721301794052 -0.311058849096 2.00811362267
81.8291666667 0.0149384969845 0.010322467424 0.451716840267 0.547801911831 0.291961431503 0.416920423508 0.462814897299 -0.831903457642
81.8833333333 0.0176968853921 0.00263031595387 0.679884374142 0.236021921039 0.227434486151 0.392673313618 0.477954179049 0.389656037092
81.9375 0.0152762671933 -0.00351757206954 0.695889174938 -0.157154127955 -0.458491414785 0.346514761448 0.0487415678799 -0.336385726929
81.9916666667 0.0137098738924 -0.00788140948862 0.512273609638 -0.502109467983 0.454978018999 0.0648765787482 0.256923317909 -0.450299531221
82.0458333333 0.00940030720085 -0.0146083459258 0.156518056989 -0.718624413013 -0.344437897205 0.00700748944655 0.409614592791 0.402963936329
82.1 0.00024773561745 -0.0167683493346 -0.293827205896 -0.670335590839 -0.364442676306 0.355941444635 -0.176677003503 -0.570931613445
82.1541666667 -0.0075746756047 -0.013265571557 -0.645399868488 -0.383270293474 0.214842021465 -0.477000117302 0.413001298904 0.843111753464
82.2083333333 -0.0102413250133 -0.00639660051093 -0.764849662781 0.0269583705813 -0.237197235227 -1.23725771904 -0.0100955078378 0.0769429430366
82.2625 -0.00837440043688 -0.00118266511708 -0.650564134121 0.336454987526 5.19146490097 2.43489837646 4.9630355835 -1.65191543102
82.3166666667 -0.00544819468632 0.00123413477559 -0.448486715555 0.610177576542 0.153925091028 0.943927824497 -0.00254480866715 0.138633579016
82.3708333333 -0.00266159558669 0.00134949048515 -0.0329661294818 0.76307362318 -0.423820346594 -0.324293702841 -0.3526045084 -0.746811747551
82.425 -0.00220151012763 -0.000415513961343 0.431009888649 0.62847328186 -0.887155175209 0.480389386415 -0.800869584084 -0.306057244539
82.4791666667 -0.00291081191972 -0.00143036292866 0.702942013741 0.283658146858 -0.816123306751 0.400995999575 0.210910603404 0.330187737942
82.5333333333 -0.00486732274294 -0.00093594007194 0.749086976051 -0.0854427292943 0.133099883795 -1.1677697897 0.647086560726 0.653976619244
82.5875 -0.00418912805617 0.00166838930454 0.625405490398 -0.433541595936 0.3507566154 1.30768167973 -0.320246547461 0.250221788883
82.6416666667 -0.0037441928871 0.00296308216639 0.327771782875 -0.674902200699 -1.01699888706 1.28836727142 -0.330238610506 0.333838671446
82.6958333333 -0.00143872795161 0.00382044166327 -0.0360697321594 -0.732219576836 -0.0469347275794 1.07340466976 0.0845635682344 0.445054084063
82.75 8.12851212686e-05 0.00227306224406 -0.386571705341 -0.640546262264 -0.769288241863 -0.603204786777 -4.07546138763 -1.25371217728
