!Created with skrf (http://scikit-rf.org).
# GHz S RI R 50.0 
!freq ReS11 ImS11 ReS21 ImS21 ReS12 ImS12 ReS22 ImS22
60.0 0.213459059596 -0.164860740304 0.000197873931029 -0.000494357896969 -0.154258994935 -0.379206502401 0.712651409632 -0.123587248761
60.0416666667 0.115282543004 -0.254063904285 4.90929187436e-06 -0.000123873833218 0.163659661857 -0.292753638332 0.57963580901 -0.328578150514
60.0833333333 -0.0100398054346 -0.2636051476 -0.000112925532449 -0.000183506475878 0.745080508495 -0.202921797391 -0.146893507785 0.82975515475
60.125 -0.113600708544 -0.232769787312 -0.000380768731702 -0.000221613241592 0.625036054439 0.603393147653 0.595428796601 -0.369146186012
60.1666666667 -0.198055028915 -0.174473062158 -0.000358450604836 -2.22565158765e-05 0.774921734797 0.23988543177 -0.541583916043 -0.855478187134
60.2083333333 -0.266960114241 -0.0794938206673 -0.000260387430899 0.00017002048844 -0.955140079086 0.898535266005 0.123896334692 -0.130309208963
60.25 -0.277752935886 0.0562084242702 4.13662710343e-05 0.000503475719597 0.0314794127423 -0.773785280626 0.00946088310753 0.88516000588
60.2916666667 -0.226580306888 0.182455822825 5.89113369642e-05 0.00031860274612 -0.919359244707 -0.828532175709 0.426892550429 -0.295108566315
60.3333333333 -0.109610833228 0.292436927557 0.000285266432911 0.00028285139706 -0.96406220176 0.178470643776 0.369211638847 0.0770097068764
60.375 0.060002438724 0.292706847191 0.000425631558755 -0.00015793966304 0.080512643203 0.421118673062 0.660863027209 -0.431181610574
60.4166666667 0.192991197109 0.215422973037 0.000251712510362 -0.000404780963436 0.728111969141 0.673042206234 0.290066093825 0.849908219846
60.4583333333 0.266681522131 0.0918920338154 -3.55759548256e-05 -0.000502565992065 0.309281238193 0.818551461021 -0.917733749573 0.88703475729
60.5 0.264593571424 -0.0331832133234 -0.000519131252076 -0.000200931724976 -0.30545149268 0.196356154937 0.6707572232 -0.661962385955
60.5416666667 0.217856615782 -0.14128805697 -0.000495581480209 6.79427757859e-05 0.817727841774 -0.603651534291 -0.255652558862 -0.454928825814
60.5833333333 0.145079374313 -0.220040649176 -0.000362639606465 0.000377527350793 0.691720231859 0.417639562305 -0.861075196732 -0.975920912478
60.625 0.0158923733979 -0.264053344727 0.000123344594613 0.00048748916015 0.489774971017 0.0776908281192 -0.70400739903 -0.285616147995
60.6666666667 -0.107821851969 -0.225738048553 0.000427097314969 0.000317297090078 -0.60091549449 0.409001841475 0.6548662859 -0.612033215261
60.7083333333 -0.181819483638 -0.153494000435 0.000334541837219 0.000103880374809 0.473828929327 0.347462157664 -0.876880812275 0.361587162913
60.75 -0.235686957836 -0.0614054203033 0.000419890100602 -5.26156291016e-05 -0.161358987346 0.00908740590184 0.459718629624 -0.352890772124
60.7916666667 -0.225878685713 0.0595376677811 0.000293339369819 -0.000452680105809 -0.316504785343 -0.123257795343 -0.852906832961 0.978449606375
60.8333333333 -0.174189403653 0.149029761553 2.09983481909e-05 -0.0006168828113 -0.643609053288 0.906301919215 -0.867130408675 -0.722482449999
60.875 -0.080606482923 0.210799440742 -0.000458670081571 -0.000378500699298 -0.0689805344485 0.357065936906 -0.954205031245 0.169033435528
60.9166666667 0.0352661795914 0.21934209764 -0.000691132328939 0.000136833346915 0.0610365198075 0.956313200958 -0.759778652184 -0.0561325593829
60.9583333333 0.131027415395 0.178387105465 -0.000268969015451 0.000495640386362 -0.6552221681 -0.897310666385 -0.942556333134 -0.366645419219
61.0 0.211342453957 0.103015758097 6.76913114148e-05 0.000345152191585 -0.869355845566 0.118130389529 0.34090651616 -0.474778459717
61.0416666667 0.236912414432 -0.0185471624136 0.000123270205222 0.000325514818542 -0.550014243876 0.167866521047 0.175578450286 -0.465910962548
61.0833333333 0.198248684406 -0.121320836246 0.000335918477504 0.000288014649414 -0.747664164347 0.358130284147 0.484588692138 -0.295010368652
61.125 0.116163484752 -0.191677853465 0.000342666782672 5.57632411073e-05 0.479250827994 -0.894742544516 -0.426619473785 -0.683776965918
61.1666666667 0.0124077014625 -0.21501134336 0.000517778040376 -0.00020524901629 0.883462862812 -0.602242873487 0.369997070496 0.0373410461834
61.2083333333 -0.0906027406454 -0.192844256759 0.000159625880769 -0.000559277890716 0.336956510142 0.209161652058 -0.748264968188 0.823847131461
61.25 -0.186225250363 -0.130508720875 -0.000193990650587 -0.000352434959495 -0.978168687532 0.0798163521443 -0.711546251843 -0.201128186736
61.2916666667 -0.238312736154 -0.0402171090245 -0.000326538138324 -0.000188747028005 0.213990508296 -0.399954316712 -0.216811935187 0.404886863173
61.3333333333 -0.2437838763 0.0580177716911 -0.000458312191768 2.3600010536e-05 -0.16096401546 0.103652895545 0.387167317487 -0.281623886449
61.375 -0.20745408535 0.154390737414 -0.000373535323888 0.000238730863202 -0.590322320131 0.756757076932 0.880393364683 -0.867472421277
61.4166666667 -0.12315402925 0.232204481959 -9.80066979537e-05 0.000491715269163 -0.540191154756 0.614648821579 0.232650515962 0.772827681231
61.4583333333 -0.00514405081049 0.269829422235 0.00027553277323 0.000503942894284 0.70095276161 -0.700908288002 -0.912895197197 -0.819334777092
61.5 0.114219173789 0.243453457952 0.000458714261185 0.000108162399556 -0.471927770497 -0.669868304537 0.34161006048 0.161989869126
61.5416666667 0.216351881623 0.174449115992 0.000371433357941 -0.00012083027832 -0.683930764125 -0.0255071485715 0.209824693749 0.232804317518
61.5833333333 0.281591415405 0.0555178113282 0.000280780979665 -0.000409342203056 0.447084074704 -0.664033927333 -0.854461073658 -0.10144864119
61.625 0.282094717026 -0.0733106210828 -3.38011050189e-05 -0.000383171543945 0.298683643895 -0.81433435478 0.979852420486 0.938933621143
61.6666666667 0.221953868866 -0.1903090626 -0.000151138810907 -0.000278014224023 0.162526940769 -0.0515753405528 0.216086152982 0.236794449487
61.7083333333 0.116588257253 -0.27423235774 -0.000311323732603 -0.000263030000497 0.194598009621 -0.799467896839 0.897382771191 0.554409755665
61.75 -0.0103366449475 -0.295380890369 -0.000454775203252 -2.11845017475e-05 -0.0898554121405 -0.956568141539 -0.0958751753785 0.367724263629
61.7916666667 -0.137036308646 -0.259327799082 -0.000331753515638 0.000354297604645 0.259706174764 -0.461460034029 -0.378390982583 0.981503293252
61.8333333333 -0.248744398355 -0.189203217626 2.57474694081e-05 0.000622698862571 -0.437623793807 0.643846022941 0.666632314596 -0.11454388161
61.875 -0.301558613777 -0.0756359547377 0.000459435774246 0.000507521443069 0.431192835815 -0.179025082731 0.179196035282 0.0852819429543
61.9166666667 -0.297875583172 0.0567885860801 0.000488062680233 0.000196822264115 -0.207397210547 0.943131430135 0.0427521118982 -0.701943097803
61.9583333333 -0.235256969929 0.175618603826 0.000555102771614 -0.000256617553532 0.449474651109 -0.101786112268 -0.708264471051 -0.843280369661
62.0 -0.123804017901 0.248226195574 0.000143881872646 -0.000537999323569 0.397334989659 0.137615349819 0.925092160089 0.209524330766
62.0416666667 -0.0097734965384 0.263828784227 -0.0001600291871 -0.000395241921069 -0.134149838081 0.990628992785 -0.0645045432454 0.500183558278
62.0833333333 0.105597883463 0.239309281111 -0.000415650225477 -0.000241411078605 0.594436531722 -0.0929696308612 -0.623748106045 0.478446208582
62.125 0.224822312593 0.149062052369 -0.000476098794024 3.21144871123e-05 -0.502830175816 -0.299341970455 -0.00178017645778 0.743808251024
62.1666666667 0.262136280537 0.0279752798378 -0.000379271281417 0.00031377072446 -0.0622406292388 0.773178025124 0.267361247162 -0.255470404663
62.2083333333 0.243490278721 -0.0879057347775 -4.29953106504e-05 0.000267280382104 -0.959925009649 0.722211971989 0.203391782711 -0.945100956432
62.25 0.174197614193 -0.183870628476 0.000145246332977 0.000375769712264 -0.848413381768 0.421605520877 0.200414563177 -0.0282371984537
62.2916666667 0.0715055167675 -0.232817739248 0.000465060118586 0.00011683224875 0.825967513671 -0.557038560237 -0.0488228939497 -0.371571778773
62.3333333333 -0.0411268100142 -0.242266312242 0.000224936840823 7.4437607509e-06 0.612455433474 0.508630341123 -0.525678089373 -0.57416581539
62.375 -0.15805092454 -0.19081133604 0.000250730110565 -0.000136420043418 -0.257248290917 0.836382742458 0.0277523241878 -0.137523143811
62.4166666667 -0.226964443922 -0.088843755424 1.96262772079e-05 -0.000526513264049 0.706294755244 0.347629343527 0.323972311382 0.282644957383
62.4583333333 -0.246756777167 0.0281441416591 -0.000242058042204 -0.000337093719281 -0.574265172304 0.402841564131 -0.431979835081 -0.77040336638
62.5 -0.198343396187 0.145503789186 -0.000346794142388 -8.24653398013e-05 0.865650107367 0.905365614343 -0.265455410278 0.2167845165
62.5416666667 -0.102694667876 0.217523828149 -0.000252184661804 0.000250164273893 -0.645297677812 0.491433215145 0.0802769349384 0.753905399805
62.5833333333 0.00988034531474 0.242641314864 1.49227334987e-05 0.000266992894467 0.739432642089 -0.377791628152 0.590576351927 0.419690939373
62.625 0.12773014605 0.210696518421 1.86736560863e-05 3.46074521076e-05 -0.728026310902 -0.397754905177 0.734484046821 0.664740085731
62.6666666667 0.211986511946 0.128742262721 2.89586587314e-05 7.51530315029e-05 0.974200383757 -0.402133159254 0.690779100515 -0.2998617888
62.7083333333 0.24627302587 0.0197642222047 7.879718396e-06 0.000143176017446 -0.448390040476 -0.000247395788759 -0.668445053399 0.0540819752264
62.75 0.228406071663 -0.0859842672944 0.00023258375586 0.000148067410919 -0.419159694144 0.569286806146 0.0467963716951 -0.618214104503
62.7916666667 0.162324458361 -0.180557787418 0.000191403698409 -0.000235063125729 0.0254853836669 -0.285533134041 0.150717617083 0.928553417161
62.8333333333 0.0602722465992 -0.25932970643 2.25591338676e-05 -0.000201686401851 0.576046464293 -0.674179396058 0.244919541014 0.476424482097
62.875 -0.0691922977567 -0.26576808095 -6.81589735905e-05 -0.000305664434563 -0.759417400821 0.269268372865 -0.431208634681 -0.601475311936
62.9166666667 -0.195010736585 -0.218666508794 -0.00020433923055 8.64829926286e-05 -0.058163819538 -0.554957521931 0.743392015972 -0.971580900765
62.9583333333 -0.274585872889 -0.113121196628 -3.0156399589e-05 -3.85749990528e-05 -0.388867572364 -0.219898647805 0.124244794663 -0.150774007174
63.0 -0.2998239398 0.0139451120049 -0.000342472689226 0.000145336278365 0.813329795611 0.367856022079 0.704568329304 -0.853468976539
63.0416666667 -0.258909523487 0.143400713801 -5.07640106662e-05 5.51110606466e-05 0.0410712182966 -0.790006257374 -0.62883862205 -0.537053643011
63.0833333333 -0.167282581329 0.257938474417 -7.72595667513e-05 0.000272599572781 0.166663653219 0.549393203667 0.593033307394 0.814593582112
63.125 -0.0478584133089 0.300785154104 0.000323900982039 0.000271339609753 0.7377959189 0.475607972806 0.871366216957 0.205222412485
63.1666666667 0.0830606818199 0.295196890831 0.000202727271244 7.71923005232e-05 0.641674686904 0.978763823758 -0.344639398028 -0.430989454878
63.2083333333 0.204780846834 0.229363948107 0.000290120980935 -6.4512998506e-05 0.914810938207 -0.787371807682 -0.613795166076 -0.633035949535
63.25 0.294447869062 0.106568813324 0.000142634482472 -0.000277896731859 0.658821209962 -0.772697683203 -0.549921461846 0.797882533004
63.2916666667 0.318197876215 -0.0335502959788 1.9678947865e-05 -0.000252353551332 0.538860937733 0.298665904398 0.30299368181 -0.92170008755
63.3333333333 0.274882316589 -0.172107025981 -0.000242023888859 -0.000265233509708 -0.79315996967 -0.439275380009 0.100858803031 -0.198208031481
63.375 0.173483207822 -0.276668488979 -0.000359601632226 -3.40868609783e-05 0.292225857908 -0.638159497691 0.904329303486 0.340349756825
63.4166666667 0.0332250781357 -0.322094351053 -0.000299568666378 0.000155745598022 0.48011813441 0.162637777653 -0.0235802940935 -0.322284116567
63.4583333333 -0.116836696863 -0.300647348166 -8.30618955661e-05 0.000416492228396 0.235305175007 -0.372392258393 0.424572407163 0.852993074833
63.5 -0.229333773255 -0.232420027256 0.000168485887116 0.000249318254646 0.0308309290589 -0.489313597636 0.241319533739 0.884298314232
63.5416666667 -0.302960693836 -0.109065905213 0.000391758338083 6.95429480402e-05 0.627681829925 -0.819793431974 -0.122855561034 -0.472219216618
63.5833333333 -0.331392973661 0.0301393326372 0.000181368668564 -0.00018224606174 -0.510260526943 -0.63625861927 0.174118713157 -0.761151693621
63.625 -0.280952811241 0.171863272786 8.77004786162e-05 -0.000163564793183 -0.0405048627634 -0.783029549233 0.436560353795 -0.686035270927
63.6666666667 -0.176863968372 0.252460002899 -8.60710279085e-05 -0.00011041660764 -0.20087471936 -0.744732635326 0.415150906071 -0.177589127285
63.7083333333 -0.0580387599766 0.29591396451 1.59470419021e-05 -6.15030148765e-05 0.850443948566 0.157993468722 -0.356459725619 0.708254482847
63.75 0.0688299462199 0.291412383318 -9.56895237323e-05 -0.000275973143289 -0.782105387686 0.399842590951 0.501790076854 -0.230627431769
63.7916666667 0.197350129485 0.239787250757 -0.000299160368741 5.80340783927e-05 0.980823464509 -0.347826669238 0.583489610259 -0.515890147635
63.8333333333 0.27574172616 0.136918306351 -0.000165150675457 8.54021345731e-05 0.130820977725 0.273118653976 -0.872534177202 0.367021202867
63.875 0.296173542738 0.0159297138453 -8.56493279571e-05 0.000237594140344 0.549569945515 0.916257402071 0.183718366288 -0.0321637388752
63.9166666667 0.275788396597 -0.107670977712 0.000183471551281 7.17426883057e-05 -0.907062321688 -0.237840078524 -0.480369813135 0.498066580414
63.9583333333 0.216332167387 -0.226776838303 -3.03011856886e-05 0.000128573839902 0.956192656298 0.620142069423 -0.562957324852 -0.19331547662
64.0 0.0972049087286 -0.280422151089 0.000240556822973 -7.19673698768e-06 0.521687742158 0.804887672451 -0.457021167205 -0.111841747848
64.0416666667 -0.0285048317164 -0.292397111654 3.45058542734e-05 -7.3204319051e-05 -0.576097432389 0.992396327612 -0.117523777672 0.332735294872
64.0833333333 -0.154705703259 -0.244191482663 0.000165016695973 -0.000186237622984 0.852181216163 -0.268668229962 -0.241784622437 -0.369359261425
64.125 -0.247577935457 -0.137758746743 -0.000251059303991 -7.61459523346e-05 -0.166121161393 -0.370459644267 0.870556124396 0.508911604614
64.1666666667 -0.287801533937 0.00273497123271 1.56442129082e-05 0.000110562141344 0.271888521812 0.046237769281 -0.83148757167 0.934564523466
64.2083333333 -0.259230315685 0.13528354466 -5.90486815781e-05 1.87307923625e-05 -0.632376327542 0.718286114789 0.44342866861 -0.722787030684
64.25 -0.176215916872 0.218916371465 0.000166854690178 -8.70584553923e-05 -0.395953042734 -0.199922189238 -0.528092853901 -0.645435704895
64.2916666667 -0.0674953535199 0.275715023279 -0.000241703877691 -4.33710629295e-05 0.044218019357 0.492575224659 -0.542552496261 0.343973550157
64.3333333333 0.0459702312946 0.268435716629 -1.1506982446e-05 0.000151477797772 -0.189307044827 -0.513400248134 0.933232935857 -0.493490097494
64.375 0.165153577924 0.227550789714 -0.000117952768051 0.00015014327073 -0.322235191801 0.637760716841 0.119112949003 -0.852061958794
64.4166666667 0.248755514622 0.133276060224 0.000164951066836 5.8626250393e-05 0.342200485437 0.931313813114 0.223206019701 0.0804148356497
64.4583333333 0.280123770237 0.0177315399051 6.58900680719e-05 -0.000138857314596 0.884263789165 0.713610296201 -0.225234666727 -0.44586635231
64.5 0.275574862957 -0.115822479129 7.75508160586e-05 1.52512884597e-05 0.0391054704902 -0.639889606222 -0.366528827736 -0.830986255467
64.5416666667 0.177101284266 -0.200834304094 5.11084399477e-05 1.39872063301e-05 0.742407654781 0.434839708259 -0.535432002004 0.910184904867
64.5833333333 0.0903806462884 -0.261234164238 3.35445292876e-05 4.57881360489e-05 0.68390369717 -0.292445055971 -0.53074448528 0.0459024600284
64.625 -0.0396822914481 -0.33068972826 4.08806808991e-05 -0.000243095302721 -0.92701465627 0.667046629149 -0.339452959738 -0.614002950975
64.6666666667 -0.20530103147 -0.300856977701 -0.000156876034453 -0.000190413644304 -0.692746512561 -0.996486092869 -0.0794336595535 -0.179367580881
64.7083333333 -0.322954744101 -0.186428502202 -9.22545805224e-05 6.26456385362e-05 -0.658826134991 -0.357508337358 -0.688448721229 0.504682081589
64.75 -0.350843697786 -0.0512758046389 -0.000283111439785 8.17188119981e-05 -0.774499527516 -0.864850318881 -0.887851026745 -0.864536882041
64.7916666667 -0.332369208336 0.072659984231 2.18762725126e-05 0.000280628126347 0.136300036134 -0.349033378148 -0.322578684655 0.15996388146
64.8333333333 -0.267040938139 0.191082239151 -4.93054321851e-05 0.00010028048564 -0.794447724372 -0.938815314747 -0.448928743378 0.418392840642
64.875 -0.163645476103 0.305409014225 0.00025205075508 0.000185079363291 -0.0408742311414 -0.682809081875 -0.732497374466 0.95731889099
64.9166666667 -0.0193528421223 0.322753697634 0.000213194376556 4.27176673838e-05 -0.882554344741 -0.0329538667393 0.242878015071 -0.530475979604
64.9583333333 0.0902320370078 0.264595746994 0.000244006179855 -0.000135763446451 0.764573702827 0.982940586878 0.775255365321 -0.0443824557907
65.0 0.173621073365 0.191296219826 -6.04347806075e-05 -0.00026355261798 0.081652263905 0.922682105732 0.264499536097 0.220366128792
65.0416666667 0.24330727756 0.100021183491 -0.00018007705512 -0.000109499735117 0.4074593903 -0.670916188103 0.114252988578 -0.797820550454
65.0833333333 0.280097216368 -0.0119775449857 -0.000113917638373 3.62916871381e-05 0.174899753504 -0.418361710986 0.307041437336 -0.574832732451
65.125 0.257036298513 -0.130972415209 4.74782391393e-05 8.48456620588e-05 -0.701701898417 0.959650187087 -0.461779422285 -0.323268407072
65.1666666667 0.165034517646 -0.237725034356 -3.16026162182e-05 -0.000113849127956 0.411926195038 0.218273236928 0.877572646118 -0.624724431977
65.2083333333 0.0526775047183 -0.274319708347 -0.000223241440835 -5.22451628058e-05 -0.597947087059 0.225405865287 -0.972927060231 -0.256255385135
65.25 -0.040534503758 -0.261981129646 -0.000130581189296 0.000206492783036 0.40556851062 -0.801715270169 -0.187064157971 0.777271126283
65.2916666667 -0.166350275278 -0.223993971944 6.81094898027e-05 0.000257983396295 -0.0835434900386 0.845259836412 0.393161837049 -0.729283551677
65.3333333333 -0.254187226295 -0.130261108279 0.000286214984953 0.000117044750368 0.0368006534797 -0.706856597577 -0.824956726595 -0.330261237147
65.375 -0.288859158754 -0.0029183269944 0.000102541111119 -0.000145007987157 0.416660436927 0.0544156437867 0.125274364265 0.701745762299
65.4166666667 -0.260294705629 0.122396104038 3.65938794857e-05 -0.000138467425131 -0.546505923973 0.518269970416 0.418973221791 0.493103715054
65.4583333333 -0.185558766127 0.230195298791 -0.000127208288177 -3.03427877952e-05 -0.477856237314 0.622397071646 -0.996820248851 -0.295836272982
65.5 -0.0624900758266 0.277702689171 4.74298394693e-05 -6.88892469043e-05 0.493302051533 0.220196728582 0.957090319396 -0.780459534
65.5416666667 0.0764316990972 0.270520061255 1.74253327714e-05 -5.90585732425e-05 0.383814223583 0.688153629571 -0.681389842898 -0.66129116469
65.5833333333 0.182808697224 0.219817310572 -3.83153419534e-05 -0.00012363238784 -0.588339026304 0.0973907892147 0.905540040187 -0.730291340628
65.625 0.260217219591 0.143851518631 -0.000187870929949 -6.10304305155e-05 0.613107188452 -0.846179156352 -0.697117412677 0.663180927937
65.6666666667 0.301385641098 0.0184849835932 -0.000239867149503 6.70227964292e-05 0.619283317349 0.914415888761 -0.50329912009 -0.964884074916
65.7083333333 0.275500535965 -0.10599014163 -0.000142255870742 0.000218679007958 -0.0679502793125 0.789736869578 0.726135391816 -0.625144445256
65.75 0.215998858213 -0.212218284607 1.45201665873e-05 0.000245931587415 -0.051242578541 0.109371502148 -0.453934555378 -0.16807865331
65.7916666667 0.130858659744 -0.298888891935 0.00022321625147 0.000254053069511 -0.0766279531612 0.380191871772 -0.297010436509 0.95751535664
