!Created with skrf (http://scikit-rf.org).
# GHz S RI R 50.0 
!freq ReS11 ImS11 ReS21 ImS21 ReS12 ImS12 ReS22 ImS22
75.0041666667 -0.29444745183 0.0960095226765 5.93896356804e-06 8.60248619574e-05 -0.520542800426 -0.183647990227 -0.229242831469 0.337246328592
75.0583333333 -0.196975827217 0.24048255384 1.62839387485e-05 -1.55170309881e-05 0.803832769394 -0.22063690424 0.844099998474 0.524515807629
75.1125 -0.0447618365288 0.304004997015 -9.07721459953e-06 -6.01406900387e-05 0.260767251253 -1.19105887413 0.415304332972 -0.244976401329
75.1666666667 0.121975161135 0.281734794378 2.78904281004e-05 6.98421135894e-05 0.111896589398 0.577099740505 -0.375356256962 0.575738430023
75.2208333333 0.245866820216 0.176881164312 -6.97959376339e-06 1.9961164071e-05 0.138596490026 -0.17260324955 0.287932932377 -0.107925437391
75.275 0.296148270369 0.0207621343434 5.03751834913e-05 5.39560314792e-05 -0.716633081436 -0.234036207199 1.00239861012 0.947626590729
75.3291666667 0.255927205086 -0.134161680937 6.89342923579e-05 1.67233940829e-06 1.01473498344 0.209399402142 0.00954783149064 0.0324799232185
75.3833333333 0.1431632936 -0.240189626813 -3.40815422533e-05 -3.35952827299e-05 -0.30157583952 -0.963018238544 0.939687311649 -0.319788902998
75.4375 -0.00305054918863 -0.269010722637 -5.00058304169e-05 6.42656013952e-05 0.763099730015 0.278611630201 -0.174423456192 0.220490306616
75.4916666667 -0.135967239738 -0.217002794147 8.39399217512e-05 -5.84418630751e-05 -0.325923234224 -0.171672388911 -0.00589969614521 -0.205033168197
75.5458333333 -0.222119167447 -0.113852523267 -1.85757999134e-05 -2.14700085053e-05 -0.48159083724 0.497137457132 -0.590054392815 -1.45157051086
75.6 -0.241788074374 0.0230469219387 -4.3866046326e-05 3.03171636915e-05 0.230583027005 -0.00543012609705 0.444903701544 -0.193187907338
75.6541666667 -0.189671054482 0.145144969225 -0.00015909402282 5.34908758709e-05 0.0688960552216 0.0618266686797 0.109389938414 -0.0844320431352
75.7083333333 -0.0852882862091 0.21925547719 2.72204651992e-05 0.000134306363179 -0.715627193451 -0.529455721378 -1.0470212698 -0.089728012681
75.7625 0.0483135767281 0.235612511635 4.69079641334e-05 -6.15847384324e-05 -0.344959378242 0.376426488161 0.248567134142 -0.334066152573
75.8166666667 0.172141954303 0.16789971292 -0.000109540931589 -0.000134394693305 0.520217478275 -1.38595569134 0.780755460262 0.751577734947
75.8708333333 0.24124366045 0.0404466763139 -0.00014077720698 0.000193615429453 0.0214434433728 -0.160528451204 1.00408148766 -0.0311479549855
75.925 0.217721715569 -0.100218050182 0.000103010701423 0.000110769149614 0.197985842824 -0.410991489887 -0.262940824032 -0.236226767302
75.9791666667 0.1292103827 -0.191635996103 0.000117547475384 -5.32126286998e-05 0.551990449429 0.0838281810284 0.23116505146 0.121499210596
76.0333333333 0.00848673284054 -0.239615097642 -3.39500729751e-05 -9.62734411587e-05 -0.150745555758 0.365987032652 0.196693405509 -0.29236894846
76.0875 -0.125607401133 -0.208723932505 -4.27694321843e-05 2.25474050239e-05 1.44844424725 -0.158240288496 1.02905929089 -0.759920835495
76.1416666667 -0.221012398601 -0.111643381417 -6.45561449346e-05 -1.57969668635e-06 0.00238648639061 -0.112031035125 0.0491291433573 -0.602081477642
76.1958333333 -0.249161615968 0.0198911651969 3.08430608129e-05 7.55869041313e-05 0.676569461823 0.655972242355 0.214799702168 0.847612977028
76.25 -0.208406820893 0.138670057058 4.7901259677e-05 -5.94954653934e-05 0.10983094573 0.262981683016 -0.260608822107 0.0815467536449
76.3041666667 -0.110543586314 0.236223593354 -4.99027155456e-05 -0.000104138482129 0.09518096596 0.491800278425 0.249670132995 -0.06758133322
76.3583333333 0.0319886617362 0.264279127121 -0.000126788669149 6.05083841947e-05 -0.413205087185 -0.180085524917 0.249588608742 -0.60554420948
76.4125 0.165571168065 0.211886942387 0.000177337031346 0.00019741532742 2.46021509171 1.30831813812 -1.80162644386 0.0355858579278
76.4666666667 0.258002877235 0.0997624844313 8.93629257916e-05 -0.000191586193978 -0.602877855301 -0.230149179697 -0.484908849001 -0.178712561727
76.5208333333 0.272273331881 -0.0415520481765 -9.58872624324e-05 -2.93700595648e-05 0.340296626091 0.122858390212 -0.275137126446 0.270002633333
76.575 0.212450966239 -0.178753629327 7.5619832387e-06 3.74849551008e-05 -0.224664703012 -0.15172162652 -0.00420695217326 -1.16702592373
76.6291666667 0.0912108197808 -0.254663348198 7.85994852777e-05 4.02644254791e-05 2.90642595291 1.84846568108 1.35863089561 0.088836684823
76.6833333333 -0.0438773706555 -0.261774688959 7.31845284463e-05 -0.000102969323052 -2.04473185539 0.962418735027 1.63020861149 -1.15057182312
76.7375 -0.161934033036 -0.203240931034 -0.000105548191641 -8.02643171482e-06 0.989105284214 -1.6711935997 0.417284041643 -0.993758380413
76.7916666667 -0.239828437567 -0.095765940845 3.50964946847e-05 9.56561852945e-05 0.400282382965 -0.966422140598 -0.853513419628 -0.113394394517
76.8458333333 -0.263208448887 0.0434447191656 2.32099355344e-05 -7.61520423112e-05 0.192205712199 0.178608983755 0.0368098169565 -0.0577741973102
76.9 -0.199453562498 0.168953329325 2.33492446569e-05 -1.30295147756e-05 -0.26985296607 0.0989529266953 -0.0585791431367 0.141445547342
76.9541666667 -0.075122885406 0.246738061309 -4.29239553341e-05 -2.80200765701e-07 0.959562182426 -0.810533821583 0.248765528202 0.247767955065
77.0083333333 0.0612337142229 0.246243223548 -0.000115538874525 6.58918943373e-05 0.73860001564 -0.691725850105 0.0125162340701 -1.10222971439
77.0625 0.177621513605 0.17450787127 0.000143833211041 5.30121396878e-05 -0.0767617151141 0.402806341648 -0.522902786732 -0.101025469601
77.1166666667 0.243547484279 0.0567111708224 0.000139794079587 -6.03788839726e-06 0.0773519873619 -0.537033259869 -1.50154292583 1.46307277679
77.1708333333 0.232233181596 -0.0736925974488 -3.15369434247e-05 -4.44143661298e-05 -0.00758113199845 1.32366335392 -0.218191370368 -0.682149171829
77.225 0.158764496446 -0.181005313993 -5.8680143411e-05 -4.11337168771e-06 -0.953168272972 -0.792391359806 -1.07936799526 0.252179801464
77.2791666667 0.0385609716177 -0.229195058346 -4.62364623672e-05 -1.49684974531e-05 1.89976859093 -0.211041927338 0.218907162547 2.77825975418
77.3333333333 -0.0826822817326 -0.214370131493 2.50294815487e-05 1.93918494915e-05 -0.202652022243 2.3583676815 -0.419476389885 0.217180654407
77.3875 -0.177875429392 -0.14241194725 -2.82378027805e-06 -3.49725814885e-05 0.666929602623 -1.03908586502 -0.897203624249 0.263058364391
77.4416666667 -0.228940412402 -0.0336891114712 -4.05902346756e-06 -6.09707203694e-05 1.84468483925 -0.0203924868256 0.550298571587 -0.526134908199
77.4958333333 -0.212596386671 0.0913009047508 -9.9444980151e-05 4.29822757724e-05 -0.171446427703 0.505941331387 0.0272100530565 -0.32750877738
77.55 -0.138224422932 0.187326595187 9.28628287511e-05 9.41977705224e-05 2.14149403572 -1.33943617344 -0.491895437241 -0.121757164598
77.6041666667 -0.0235008876771 0.233319684863 2.0834062525e-05 -5.64439033042e-05 0.916865706444 1.16951143742 0.00116306438576 -0.336037993431
77.6583333333 0.103743471205 0.215583339334 -5.09460769536e-05 1.58690709213e-05 -0.112707607448 -0.0941606834531 0.0100884735584 -0.291821479797
77.7125 0.20551006496 0.134442776442 1.01088335214e-05 6.56573974993e-05 0.670724868774 -0.619407951832 0.48599973321 0.44197627902
77.7666666667 0.252295404673 0.0128364330158 1.96961536858e-05 -3.22086416418e-05 -0.543290436268 -0.235066831112 0.846990525723 0.856931269169
77.8208333333 0.222249791026 -0.122066922486 -3.08826274704e-05 -2.51117808148e-06 2.40804028511 -2.21743035316 2.1944270134 -0.149966686964
77.875 0.128191113472 -0.222037762403 6.46573025733e-05 -1.85107874131e-05 1.40547466278 1.14962494373 0.911209225655 2.20938801765
77.9291666667 -0.00491908192635 -0.259564131498 -7.61242108638e-06 -3.2573378121e-05 2.38913321495 2.08881902695 -3.24441075325 1.45547795296
77.9833333333 -0.133831471205 -0.222734153271 -1.72816889972e-05 -7.41743278923e-05 -0.297631442547 -0.0941117554903 0.278557538986 0.19982881844
78.0375 -0.229036912322 -0.124556183815 -5.90241070313e-05 3.67022221326e-05 -1.24221313 -0.715900361538 0.401138663292 0.0111797377467
78.0916666667 -0.263821393251 0.0100337425247 4.93742554681e-05 7.56506851758e-05 -0.95317953825 0.889415919781 -0.671032309532 -0.525103926659
78.1458333333 -0.226041659713 0.140328794718 5.25797404407e-05 -4.89551202918e-05 1.87959766388 3.79448580742 1.21917116642 -0.624406754971
78.2 -0.127107292414 0.240878775716 -4.76061504742e-05 -4.52814565506e-05 -1.26189661026 0.513356089592 -0.794779241085 -0.1718313694
78.2541666667 0.0157510321587 0.27568128705 -1.1510580407e-05 5.31770056114e-05 -0.415371090174 -0.0168844293803 -0.0815856009722 -0.0569820478559
78.3083333333 0.16121545434 0.232979685068 4.68826910947e-05 4.20600372308e-05 0.138390436769 0.315239876509 0.142253950238 -0.537959516048
78.3625 0.259632736444 0.107654094696 4.76896238979e-05 -5.78717263124e-05 -0.135837003589 0.719334900379 0.454290360212 1.13417875767
78.4166666667 0.267057090998 -0.0332515500486 -1.37013657877e-05 -4.0563991206e-05 0.780811905861 -0.385752111673 0.798702597618 0.655738413334
78.4708333333 0.220910072327 -0.157716527581 1.2160415281e-05 -1.59771516337e-05 0.280688822269 1.16098189354 -0.0340766683221 0.946796357632
78.525 0.11209949106 -0.255837917328 -4.96062557431e-06 -5.82377324463e-05 -0.706962287426 -0.70896333456 -0.142496600747 0.47960999608
78.5791666667 -0.0434694774449 -0.280045330524 6.78348587826e-05 0.000101381927379 -0.991655230522 -0.0701626464725 0.407672017813 0.0947153940797
78.6333333333 -0.190537825227 -0.211221411824 5.205148409e-05 1.54324461619e-05 -0.440397650003 0.0797768682241 -0.345275253057 -0.0867784097791
78.6875 -0.263972580433 -0.0714783445001 -6.07040601608e-06 -0.000114983398817 0.777558207512 0.35327732563 0.851793467999 0.0886606946588
78.7416666667 -0.252736777067 0.0736170113087 -7.46050791349e-05 3.18721649819e-05 -0.768188297749 0.322161525488 -1.29042458534 -0.10976421833
78.7958333333 -0.175713524222 0.190188974142 1.35921636684e-05 9.95019290713e-05 -0.572714865208 -0.147062495351 -0.348379433155 0.229299083352
78.85 -0.0582589022815 0.24850256741 6.38415367575e-05 -2.89830077236e-05 -0.123468957841 -0.181801080704 -0.0364435873926 -0.665816426277
78.9041666667 0.0796785950661 0.243744164705 2.16596272367e-05 -2.43137350253e-07 -0.254319489002 0.255136549473 0.206646203995 -0.560366630554
78.9583333333 0.186499387026 0.169257491827 2.44144448516e-05 -3.38632125931e-05 -0.184226572514 -0.132205471396 -0.21386243403 0.316659003496
79.0125 0.25043669343 0.0551151968539 -5.13398117619e-05 3.20671788359e-05 -0.224514678121 0.0649029836059 0.337163001299 0.05686269328
79.0666666667 0.248407766223 -0.0826744958758 -3.38159179591e-06 2.91597916657e-05 0.833530426025 1.35834801197 5.59153366089 -2.8677649498
79.1208333333 0.170795410872 -0.199358016253 0.000101540746982 1.18383331937e-05 -1.05011487007 0.103585034609 -0.0182452853769 -0.295269459486
79.175 0.0469977222383 -0.256562829018 4.34047506133e-05 -4.97496366734e-05 0.586028695107 -1.5649228096 -1.1039532423 -1.83868086338
79.2291666667 -0.0935419052839 -0.247116535902 -9.8136933957e-06 -0.000103795347968 0.541212022305 -0.262672036886 0.472265779972 -1.0202293396
79.2833333333 -0.210604056716 -0.16685526073 -6.41481528874e-05 1.10944492917e-05 0.173732861876 -0.371921181679 0.479372382164 -0.218721404672
79.3375 -0.274884283543 -0.043716352433 -2.93995781249e-05 2.60155902652e-05 -0.336739122868 0.433246701956 -0.7536714077 0.889966607094
79.3916666667 -0.262036085129 0.135374873877 -1.43548741107e-05 5.83601377002e-06 0.127783119678 0.951910078526 -0.400441557169 0.348370045424
79.4458333333 -0.146304115653 0.241973280907 5.42345442227e-05 4.05714272347e-05 -0.157888561487 0.438728749752 0.385300636292 0.324429988861
79.5 -0.0136341108009 0.268920749426 -8.89588409336e-05 -4.0464950871e-05 0.233635485172 0.381436437368 0.73015743494 0.945278942585
79.5541666667 0.100205868483 0.246594592929 -7.78626031206e-07 7.31940308469e-05 1.64935624599 0.729279875755 0.482954114676 2.20784330368
79.6083333333 0.210851430893 0.17283308506 -5.98352289671e-06 -4.69666483696e-05 0.468942582607 -0.337165921926 -0.322780132294 -0.206594794989
79.6625 0.272449791431 0.047990616411 2.37535041379e-05 4.33395871369e-05 -0.790333986282 -0.291455596685 -0.586933791637 0.427342772484
79.7166666667 0.262353390455 -0.0906093642116 4.77981120639e-05 6.68236771162e-06 1.25251865387 -0.31452485919 0.123931355774 -0.313960760832
79.7708333333 0.186104893684 -0.212189614773 -8.13605583971e-05 -6.8179302616e-05 0.173012003303 0.362459272146 -0.0756397768855 0.957287311554
79.825 0.0600578077137 -0.279091656208 4.51308051197e-06 7.52852211008e-05 -0.91537976265 0.350580960512 0.148441031575 -0.381568014622
79.8791666667 -0.0877366214991 -0.274729222059 -2.56351972894e-06 1.70021667145e-05 -0.281722456217 0.547811210155 0.125545218587 -0.139841467142
79.9333333333 -0.213088318706 -0.199500307441 -2.0044939447e-05 -5.2440982472e-06 0.95500344038 -0.159858733416 0.28235951066 0.720032155514
79.9875 -0.292266845703 -0.0614242814481 4.31469197792e-05 1.01557714061e-06 -0.248215809464 0.16250038147 -0.100056618452 -2.03876972198
80.0416666667 -0.271576911211 0.117371022701 -3.25536675518e-05 -4.62038151454e-05 0.370500653982 -0.0622450560331 -0.120554074645 -0.866483509541
80.0958333333 -0.175169527531 0.220674604177 -1.35524242069e-05 2.20011606871e-05 -0.276104360819 1.34098136425 0.661825060844 0.104244880378
80.15 -0.0506859272718 0.25840318203 4.15040958615e-05 1.97535318875e-05 -0.0714764744043 -0.110777899623 -0.110029026866 0.024203568697
80.2041666667 0.0603674091399 0.243120089173 1.44657915371e-05 -2.51779056271e-05 0.0364063903689 -0.0640835687518 0.134263470769 0.0180599167943
80.2583333333 0.171699300408 0.184812903404 6.33127683614e-06 3.21659317706e-05 -0.00206158263609 -0.521101355553 0.62271553278 0.205431237817
80.3125 0.2414162606 0.0781502947211 7.1324990131e-05 -4.67822537757e-05 -0.170219033957 -0.482212871313 0.820661962032 -0.476411044598
80.3666666667 0.245109513402 -0.0529366098344 -0.00011552315118 2.69135343842e-05 -2.63736987114 0.355505973101 -0.315159291029 -0.897654294968
80.4208333333 0.184441223741 -0.161341622472 0.000129616004415 4.21090335294e-05 0.0951223373413 -0.360461950302 0.472674071789 -0.577167391777
80.475 0.0840889960527 -0.240315362811 1.17643758131e-05 -5.37024679943e-05 -0.0202637519687 -1.25707101822 -1.38835585117 -1.0962035656
80.5291666667 -0.0541669204831 -0.249456018209 -2.66784536507e-05 -5.80748419452e-05 -0.541242599487 0.487488627434 -0.200549408793 0.239321470261
80.5833333333 -0.182269230485 -0.183555781841 -2.57471638179e-05 4.13711131841e-06 0.202404469252 0.795130133629 0.198757767677 -0.483756482601
80.6375 -0.249756008387 -0.0616617165506 1.10426481115e-05 -6.07116407991e-06 0.313436239958 -0.272307932377 -0.0320849046111 0.348463267088
80.6916666667 -0.247499838471 0.0711946263909 3.24464854202e-05 -3.74070373255e-06 -0.062262956053 0.636340796947 -0.824656903744 0.226980015635
80.7458333333 -0.171983882785 0.188887685537 4.50760489912e-05 4.50243078376e-06 0.13720934093 0.228872135282 0.731352031231 -0.325512200594
80.8 -0.0705440714955 0.243197932839 2.81157972495e-05 -3.71988135157e-05 -1.00413286686 1.85791444778 -2.53565502167 -0.292561620474
80.8541666667 0.0590867623687 0.251407206059 1.26430059026e-05 4.07068582717e-05 0.223669067025 0.6746352911 0.511635899544 0.671382188797
80.9083333333 0.180640205741 0.194381803274 9.39897199714e-06 -5.64350702916e-05 0.520249426365 0.596679329872 0.497830271721 -0.640008151531
80.9625 0.25230011344 0.0787673071027 -4.55408116977e-05 7.49317860027e-06 0.355151772499 0.424313217402 0.360470831394 0.335704445839
81.0166666667 0.25986123085 -0.0525192804635 3.00175761367e-05 -1.34315096147e-05 1.25573265553 -0.197757527232 -0.00936738401651 -0.569191992283
81.0708333333 0.204321235418 -0.173398166895 -6.05304085184e-05 -3.63205690519e-05 0.186976492405 -0.211229532957 -0.0636808276176 0.0801227912307
81.125 0.0828243643045 -0.256653547287 -3.1308762118e-05 -3.11158655677e-05 2.56176710129 -1.3901668787 0.950050055981 -2.8562746048
81.1791666667 -0.0402641072869 -0.269311249256 -5.70808588236e-05 1.53229848365e-05 -0.0245400834829 0.144242018461 0.236080095172 0.0822346433997
81.2333333333 -0.163085699081 -0.224416315556 1.60522613442e-05 4.13084235333e-05 1.54401564598 0.587055981159 1.16704726219 -0.925443410873
81.2875 -0.253208726645 -0.117946855724 1.53393511937e-06 7.6340211308e-06 0.324218541384 -1.05937337875 -0.525794386864 -0.307120352983
81.3416666667 -0.271569877863 0.0069986176677 3.08341827804e-06 1.34084539241e-05 0.46154871583 0.0289495233446 -0.421236336231 0.29664310813
81.3958333333 -0.244798392057 0.139726698399 5.29150793227e-06 -2.11745591514e-05 0.092975102365 -0.946161925793 0.258439451456 0.32305803895
81.45 -0.153812214732 0.247530326247 6.31382226857e-06 -5.68136420043e-05 -0.303148984909 -0.696816384792 -0.220660209656 -0.00801162887365
81.5041666667 -0.000650656817015 0.296779841185 -2.01561797439e-05 -1.64118046087e-05 -0.733923792839 -2.28661322594 0.0570506416261 -0.369652360678
81.5583333333 0.145245373249 0.245852395892 1.81504019565e-05 -1.19191072372e-05 0.253630936146 -0.296345978975 -0.940956294537 0.223908647895
81.6125 0.229217410088 0.138739973307 3.15592915285e-05 -4.99809102621e-05 0.905812263489 -0.200997591019 2.00853800774 -0.401038616896
81.6666666667 0.264099836349 0.0249127261341 -3.09904353344e-05 -3.81483259844e-05 -2.58912611008 1.92388474941 -0.18409371376 0.54093849659
81.7208333333 0.252199202776 -0.110619962215 -1.50973492055e-05 3.86814717785e-05 0.643509566784 -0.180493488908 -0.215142026544 -0.362547367811
81.775 0.168868035078 -0.227164179087 4.78251013192e-06 -6.68223001412e-05 0.165956348181 0.134360164404 -0.497496902943 -0.657697319984
81.8291666667 0.0425241030753 -0.273262470961 -4.46474223281e-05 -1.53204728122e-05 0.52121514082 0.821460127831 0.785103917122 -0.168406292796
81.8833333333 -0.0912161618471 -0.258373677731 -3.21201582665e-06 8.87073911144e-05 0.93267339468 -5.85695314407 -2.04198884964 -4.39409446716
81.9375 -0.209046423435 -0.17419911921 4.46604135504e-05 -3.57977551175e-05 -0.261027634144 -0.240275919437 -0.430668026209 0.314214110374
81.9916666667 -0.269617497921 -0.0441885702312 2.91514352284e-05 2.74447902484e-05 -0.014909944497 0.207070082426 -0.863417088985 0.0399497151375
82.0458333333 -0.257506489754 0.101305998862 2.57751835306e-05 4.02634304919e-06 -0.885973513126 -0.552425861359 -0.126387789845 -0.38054394722
82.1 -0.170974627137 0.211775362492 5.98869883106e-05 2.20890228775e-06 0.896314024925 -0.265360236168 0.69200283289 -0.478513926268
82.1541666667 -0.0401679798961 0.270118445158 -9.47835906118e-06 -2.07948396564e-05 -0.578998506069 0.176494598389 -0.414812892675 0.455299854279
82.2083333333 0.102084517479 0.255316883326 -4.18943163822e-05 2.00175527425e-05 1.16462099552 -3.11608314514 -4.09253549576 -3.85130047798
82.2625 0.214570388198 0.168896302581 -5.28336458956e-05 4.63959040644e-05 -0.243073284626 -0.0233000852168 -0.0147552266717 -0.431402772665
82.3166666667 0.268197923899 0.036895185709 6.05258574069e-05 4.81655079057e-05 0.244244471192 -0.0271323658526 0.49249625206 -0.342821359634
82.3708333333 0.250194519758 -0.104288116097 -2.81649281533e-05 -1.46283846334e-05 0.621240735054 -0.711025714874 -0.62118023634 -0.847490727901
82.425 0.163268625736 -0.208776801825 -9.28292774915e-06 6.07665679127e-05 -0.0985913425684 0.305362015963 0.24722597003 -0.162769898772
82.4791666667 0.0412365458906 -0.260030508041 5.71447562834e-05 -1.48208409882e-05 -0.0338219180703 -0.553153514862 0.0936308130622 0.532047688961
82.5333333333 -0.0928345471621 -0.250571221113 6.93578340361e-06 -9.61411296885e-06 -0.0120475646108 2.93113899231 0.261982291937 -0.62216180563
