!Created with skrf (http://scikit-rf.org).
# GHz S RI R 50.0 
!freq ReS11 ImS11 ReS21 ImS21 ReS12 ImS12 ReS22 ImS22
75.0041666667 -0.294658750296 0.115692615509 -3.72979084204e-05 2.73525911325e-05 0.175437539816 0.873733997345 1.05748987198 -0.78928732872
75.0583333333 -0.18663392961 0.257516741753 4.36750488007e-05 2.13426992559e-05 -0.037572670728 -0.736654043198 0.256793677807 0.13555790484
75.1125 -0.0265965629369 0.31282505393 -1.62044016179e-05 -3.23013446177e-05 1.86785364151 -1.40174627304 0.480085015297 -1.06140911579
75.1666666667 0.142510160804 0.279248714447 -2.982492515e-05 1.66360605363e-05 -0.0193433146924 1.16241574287 0.617584466934 1.78460502625
75.2208333333 0.26173517108 0.163643553853 1.22214860312e-05 1.8385837393e-05 -0.181262031198 0.515470087528 -0.472197860479 -0.00992161408067
75.275 0.302005112171 0.000786884047557 2.07042685361e-05 -1.56888218044e-05 1.01611685753 0.210146382451 0.617026627064 0.676438033581
75.3291666667 0.24978376925 -0.153573408723 -2.78026327578e-05 -3.04937857436e-05 -0.14429795742 -1.18113803864 0.387140125036 0.269205480814
75.3833333333 0.128392636776 -0.253010720015 -2.69638585451e-05 4.16618968302e-05 1.49114072323 -0.68320775032 0.60739171505 1.98852741718
75.4375 -0.0221212748438 -0.271366417408 5.31753066753e-05 3.3995416743e-05 1.07439982891 -1.53268635273 1.17404973507 0.0454925633967
75.4916666667 -0.153101310134 -0.209269851446 2.56418552453e-05 -8.19308042992e-05 -0.0823289901018 0.654883563519 0.282444804907 0.366374731064
75.5458333333 -0.232120454311 -0.0987799018621 -7.06626451574e-05 3.42197599821e-05 0.366292327642 -1.04040575027 0.925233900547 -0.19266037643
75.6 -0.242470026016 0.0413929857314 4.25744183303e-05 9.43995619309e-05 0.102631650865 -0.0357755459845 -0.167429417372 -0.672152578831
75.6541666667 -0.179911211133 0.160825818777 8.5663064965e-05 -0.000167259117006 0.400554507971 -0.268644183874 -0.242871925235 0.532181322575
75.7083333333 -0.0691776499152 0.228346124291 -0.000133616485982 -2.78934858216e-05 0.0456383861601 0.31196770072 0.384318083525 -0.0343146584928
75.7625 0.0677356496453 0.233779266477 -7.30838655727e-06 0.000157877293532 0.0226437784731 0.0789737179875 -0.0204482376575 0.640839993954
75.8166666667 0.187358960509 0.155263245106 0.000101218975033 -4.01898541895e-05 -1.43393743038 -2.41035723686 2.51394748688 -1.21824884415
75.8708333333 0.245794147253 0.0216715279967 -3.19894679706e-05 -0.000100532997749 1.03662848473 0.0624415054917 1.8984619379 1.2040861845
75.925 0.21185220778 -0.117836050689 -0.000115843737149 -3.61732554666e-06 0.00652368040755 -2.27549505234 1.2314106226 0.509355127811
75.9791666667 0.115300424397 -0.202925801277 3.9178859879e-05 0.000117966032121 1.12117314339 0.0131708784029 -0.742105543613 -0.0152107756585
76.0333333333 -0.00841878913343 -0.241830512881 6.7130982643e-05 -8.52670418681e-05 -0.142269179225 0.0614301674068 -0.0980081632733 -0.209881141782
76.0875 -0.140501663089 -0.201412647963 -1.02448648249e-05 -8.55060170579e-06 -0.149212568998 -0.0569826103747 0.356856703758 0.297731429338
76.1416666667 -0.230464965105 -0.0976396799088 2.81491156784e-05 -3.10831055685e-05 0.0881199836731 -0.281733393669 0.911298453808 -0.613427698612
76.1958333333 -0.249618202448 0.0357892177999 -3.78404911316e-05 -9.63184538705e-06 -0.184499368072 1.98355531693 0.0132528375834 1.9362231493
76.25 -0.201731652021 0.152887657285 -2.96689977404e-05 4.23683013651e-05 0.0920541584492 -0.0695383623242 0.252004414797 -0.292573958635
76.3041666667 -0.096746057272 0.244886264205 7.0730180596e-05 5.00996393384e-05 0.329508692026 0.117478922009 -0.0570985786617 0.206704616547
76.3583333333 0.0482705906034 0.263782501221 2.74536523648e-05 -9.27479559323e-05 1.98252034187 -4.14359426498 -0.672807693481 3.31111001968
76.4125 0.179010346532 0.20320905745 -0.000139134819619 -4.74224398204e-05 0.146744504571 -0.658310115337 0.640865027905 -0.179186105728
76.4666666667 0.265345185995 0.084325671196 1.50057103383e-05 0.000213487801375 -1.11065292358 2.79536795616 -0.693604767323 -0.453351974487
76.5208333333 0.270273834467 -0.057809907943 0.000143393903272 -0.00011257162987 -0.194678232074 -1.51242351532 0.534072160721 -0.188256070018
76.575 0.202234119177 -0.190761208534 -0.000165417368407 -9.56677031354e-05 -1.40619373322 1.68467128277 -0.360923856497 -0.51260381937
76.6291666667 0.0767600759864 -0.259586632252 7.11615757609e-06 0.000157668720931 0.0642515346408 0.00919818971306 0.363378971815 0.53774023056
76.6833333333 -0.0579773336649 -0.258601814508 7.91179845692e-05 -5.42814341316e-05 0.702423632145 -0.262539327145 -0.601022779942 -0.490729898214
76.7375 -0.172181919217 -0.194632038474 -2.58725467575e-05 -2.9227212508e-05 0.474167555571 -0.104417234659 0.633678257465 -0.893921434879
76.7916666667 -0.244725823402 -0.0829662680626 -2.68959611276e-05 7.52812638893e-06 -0.59291779995 0.316657990217 -0.775657296181 0.69012182951
76.8458333333 -0.260143369436 0.0576754957438 4.45010164185e-06 8.70055316682e-07 -1.09184134007 -0.222374618053 -1.40579807758 0.0483590513468
76.9 -0.189571246505 0.179764285684 9.2390091595e-06 3.37529272656e-05 0.382205575705 0.258767783642 0.765541851521 -0.384041786194
76.9541666667 -0.0607665218413 0.250643908978 4.36091722804e-05 -2.66159258899e-05 1.17574131489 0.359019339085 -0.0610414966941 0.593494594097
77.0083333333 0.0755288302898 0.241833090782 -2.2824629923e-05 -3.40900951414e-05 -0.595851898193 -1.06790423393 -0.407153844833 0.353284657001
77.0625 0.187294572592 0.163254708052 -3.22693995258e-05 2.91075266432e-05 0.0584545321763 -0.0883521586657 0.290995419025 -0.233802422881
77.1166666667 0.245839104056 0.041743889451 -5.75839549128e-05 6.72517708153e-05 0.269106775522 0.941186666489 0.620380282402 0.32624489069
77.1708333333 0.225985184312 -0.0877664387226 5.33000820724e-05 -1.39041021612e-05 0.655691087246 -0.555874109268 -0.617561399937 -0.472837746143
77.225 0.147104278207 -0.189351543784 -2.94820874842e-05 -1.95809861907e-05 -0.188525229692 0.253248691559 -0.207951501012 -0.143235608935
77.2791666667 0.0248057320714 -0.230442672968 -2.26352985919e-05 1.26734232708e-06 1.26445281506 0.131229072809 0.466849714518 -0.199993133545
77.3333333333 -0.0950944572687 -0.208961755037 1.91534782061e-05 7.86100770256e-07 -1.18307197094 0.573426485062 -0.0530540123582 -0.184874877334
77.3875 -0.186095833778 -0.1322914958 1.12620648451e-06 -1.67261205206e-05 0.443667292595 -0.270291596651 -0.0628860741854 0.681415259838
77.4416666667 -0.231717929244 -0.0206656102091 -1.48310400618e-05 -1.06488107576e-06 1.26409161091 1.12416362762 1.22114491463 0.169443577528
77.4958333333 -0.20863057673 0.104411929846 4.65290781904e-07 1.0024693438e-05 -0.144513309002 -0.246608838439 -0.0163559485227 -0.375344365835
77.55 -0.128419712186 0.196864411235 1.3774620129e-05 -1.31059659907e-05 1.04848694801 0.994660317898 -1.00080597401 -2.59778881073
77.6041666667 -0.00972510222346 0.237941965461 -1.33515795824e-05 -1.8705986804e-05 0.0570888258517 -0.495183259249 -0.123910874128 -0.3249745965
77.6583333333 0.118726976216 0.211887776852 4.49274148195e-06 3.33334537572e-06 0.464746564627 -0.275940209627 -0.0639984756708 0.0140882851556
77.7125 0.216629728675 0.122525624931 4.99540828969e-06 1.3217929336e-05 0.646331846714 -0.151946991682 0.609366297722 -0.13448934257
77.7666666667 0.25608175993 -0.00383682525717 4.85161899633e-06 7.33276874598e-06 -0.115024350584 -0.565288066864 0.459208726883 -1.07168424129
77.8208333333 0.215653166175 -0.13912640512 5.6502044572e-06 1.35882619361e-05 -0.0838182121515 -0.122512020171 -0.0526950918138 0.101754128933
77.875 0.112644284964 -0.232486799359 1.00409151855e-05 -1.36200264933e-06 0.323796451092 -1.21013700962 0.367684006691 -0.0323098003864
77.9291666667 -0.0236796960235 -0.260242789984 -2.22961152758e-05 -3.54100156983e-05 -1.34795999527 -2.18029403687 1.12084209919 0.201770246029
77.9833333333 -0.150973439217 -0.212902382016 2.09291265492e-05 2.24185714615e-05 -2.81036472321 2.24738717079 -0.147053465247 6.55071544647
78.0375 -0.238385379314 -0.107107646763 7.12363089406e-06 -1.09373911528e-06 -1.21337664127 0.482479721308 0.0486701205373 0.0289149861783
78.0916666667 -0.262398332357 0.029941206798 -5.867645541e-06 -9.75138755166e-06 0.445986628532 -0.205212667584 0.563636898994 0.456678539515
78.1458333333 -0.214039981365 0.157174155116 3.98815518565e-06 -1.64811456216e-06 -0.255299985409 0.79316675663 -0.764558196068 0.0854274630547
78.2 -0.107469521463 0.248573482037 -1.40241727422e-05 1.67379184859e-05 -0.623803853989 0.30810174346 -0.673444747925 1.16773331165
78.2541666667 0.0364729575813 0.271444737911 1.34189258461e-05 8.43955513119e-06 0.240409225225 0.264342695475 -0.28773483634 -0.0897228270769
78.3083333333 0.176999688148 0.217626661062 2.10040252568e-06 -1.66378631548e-05 0.697272360325 -1.26348471642 -0.87900352478 -1.27697527409
78.3625 0.263497531414 0.0864522308111 -1.4072880731e-05 6.81691972204e-06 0.212842822075 1.03837561607 0.315586328506 0.45815551281
78.4166666667 0.260026305914 -0.0524430461228 -7.95359119365e-06 1.07518035293e-05 -0.111485272646 0.764156997204 1.10472762585 1.13488376141
78.4708333333 0.204855144024 -0.171659365296 4.80447124573e-06 4.01234046876e-06 0.176002040505 0.449251383543 -0.56087231636 0.644934237003
78.525 0.0900801420212 -0.259227514267 1.37010147228e-06 -5.98858377998e-06 -0.68353164196 0.54346126318 0.793579161167 -0.947277486324
78.5791666667 -0.0632812157273 -0.269729077816 -8.53710207593e-06 -7.54829579819e-06 0.633688092232 -0.647414207458 0.768250823021 0.0629189833999
78.6333333333 -0.201171815395 -0.190686538815 1.21074947401e-06 1.39244839374e-05 0.208777993917 0.0274851359427 -0.460629552603 -0.14745272696
78.6875 -0.261067599058 -0.049800388515 9.52594928094e-06 -3.49440074388e-06 1.10158658028 -0.463676691055 -1.07842624187 -0.408592313528
78.7416666667 -0.239761352539 0.0893568247557 -7.59791464588e-06 -1.67573234648e-05 0.356211662292 0.530114173889 0.958701252937 0.42471498251
78.7958333333 -0.157025977969 0.197093561292 -1.30080552481e-05 1.02356161733e-05 0.347648173571 0.204677730799 0.208358034492 0.0852581039071
78.85 -0.0383481420577 0.245723336935 -2.1226512672e-06 -5.55506267119e-06 0.449541091919 0.242042705417 0.166812777519 0.276801526546
78.9041666667 0.0953098461032 0.231198906898 1.70754465216e-05 7.36298215998e-06 0.517292022705 0.0442913584411 0.782947301865 0.119898706675
78.9583333333 0.193480119109 0.150938898325 1.58159909915e-05 -9.02870488062e-06 -0.138433799148 1.07358086109 -0.858553826809 1.20400130749
79.0125 0.247058093548 0.0351609550416 -3.27042926074e-06 -6.86715338816e-06 -0.0179577805102 0.413802683353 0.0733501836658 0.457300394773
79.0666666667 0.235249131918 -0.0985536500812 -1.31578262881e-05 -3.82119606002e-06 -0.29197627306 -0.0649631619453 -0.258811056614 0.321354985237
79.1208333333 0.151130527258 -0.206044107676 -1.12299112516e-05 7.00019654687e-06 -0.212553709745 -1.74139785767 -1.21214938164 -0.98924767971
79.175 0.0265084896237 -0.25213009119 5.69701296627e-06 1.36438229674e-05 -0.0837641730905 0.464981466532 0.781209647655 0.317321777344
79.2291666667 -0.108599685133 -0.232011839747 8.73727003636e-06 -1.09236975732e-06 0.143509030342 0.171355396509 0.353592216969 0.249287217855
79.2833333333 -0.215250134468 -0.146152734756 -9.21409878174e-07 -8.52278299135e-06 -2.17716288567 2.03385686874 0.378304123878 -0.773252129555
79.3375 -0.268985569477 -0.0233989842236 -1.14096110337e-05 -3.63682852367e-06 0.671241343021 2.59855437279 -0.326722800732 0.870932161808
79.3916666667 -0.244414672256 0.148568555713 -7.36238780519e-06 6.77642947267e-06 0.843380749226 -1.23483192921 0.424845933914 0.849210083485
79.4458333333 -0.125606924295 0.24332113564 -4.07412198911e-06 9.27372366277e-06 -1.69064033031 2.17083954811 1.70439982414 -5.67135047913
79.5 0.00413970695809 0.260936886072 8.3718841779e-06 -3.31786168317e-06 0.222875028849 0.14940559864 0.364439100027 -0.0250710900873
79.5541666667 0.113078773022 0.232155159116 8.37438165036e-06 -9.74000249698e-06 0.0530404187739 0.463925004005 0.247544199228 1.3029769659
79.6083333333 0.21559895575 0.153475165367 2.56117550634e-06 -5.63356525163e-06 0.776502370834 0.190310120583 -1.2676192522 0.818782746792
79.6625 0.266425102949 0.0285853147507 -6.19005913904e-06 2.94975143333e-06 0.168713256717 -0.433938980103 -0.121639020741 -0.244703859091
79.7166666667 0.247330710292 -0.10517912358 -3.57951648766e-07 3.10090081257e-06 2.96489477158 0.272526711226 -0.642990291119 -2.10035014153
79.7708333333 0.164439201355 -0.216859340668 -3.26920667248e-06 -1.63125082508e-06 0.129920467734 -0.100610598922 -0.256907850504 0.576372265816
79.825 0.0385314337909 -0.271792113781 3.5535972529e-06 7.23947050574e-06 0.343899279833 0.059232275933 -0.0682437345386 -0.485526829958
79.8791666667 -0.102304518223 -0.256789505482 1.21562425193e-05 5.32740386916e-06 0.006629510317 -0.592455506325 -0.219536229968 -0.878929555416
79.9333333333 -0.216582968831 -0.176272898912 5.50267577637e-06 -2.94715027849e-06 1.14267814159 0.722336947918 -1.78413379192 2.34314203262
79.9875 -0.28201726079 -0.0390193834901 -9.44654493651e-06 1.06774052711e-06 -0.71412473917 -0.290580004454 0.399443745613 -0.0457905456424
80.0416666667 -0.250221014023 0.129243060946 -2.63951710622e-06 1.76742048552e-06 0.52749311924 -0.410931348801 1.31100451946 -0.620748221874
80.0958333333 -0.151191264391 0.219871550798 -3.01783188661e-06 4.47174761575e-06 0.473878532648 0.028402371332 0.514799177647 0.574325323105
80.15 -0.0319310501218 0.246380910277 -2.56522525888e-06 1.90247544651e-06 0.474522083998 -0.0756074935198 1.33586275578 2.59323525429
80.2041666667 0.0707604065537 0.2250225842 7.7150443758e-06 5.0043072406e-06 -0.400878071785 0.304193466902 1.48722279072 0.431729525328
80.2583333333 0.172222286463 0.163933590055 -7.0589594543e-06 -2.14995043279e-06 -1.35514557362 0.698810756207 1.51418018341 0.305784225464
80.3125 0.231757044792 0.0598326288164 -2.61570903604e-07 -9.31569729801e-07 1.43588125706 -0.958899080753 0.505713164806 0.202343866229
80.3666666667 0.227753415704 -0.0640173330903 -1.13556970973e-05 1.97283739567e-07 0.114137262106 -0.158137366176 0.364049375057 -0.493040144444
80.4208333333 0.164064481854 -0.162475720048 -1.64955179116e-06 1.1806533621e-05 1.59030926228 0.484725892544 1.00322628021 0.698967695236
80.475 0.0647467151284 -0.2307330966 4.31785383626e-06 1.4889458555e-08 -0.0523739121854 0.0704215914011 0.269050657749 -0.158699572086
80.5291666667 -0.0656423568726 -0.231262162328 8.12355483504e-06 -5.33881666342e-06 -0.723858833313 0.582355320454 -0.0583698861301 -0.240042433143
80.5833333333 -0.181332722306 -0.161437943578 -6.05497461947e-06 -6.49309868095e-06 -1.19958484173 0.883687913418 1.47019279003 0.926333606243
80.6375 -0.236809566617 -0.0437028817832 -3.60166473001e-06 5.1779752539e-06 -0.0278304927051 0.146630942822 1.09565854073 -0.5566842556
80.6916666667 -0.228042170405 0.08015268296 7.96646145318e-06 -2.11080669033e-06 0.305324077606 0.547779023647 0.156005516648 -0.139377608895
80.7458333333 -0.151154503226 0.186042457819 -8.64689354785e-06 -5.11386542712e-06 1.12333405018 -0.299376130104 2.3418879509 -1.57216262817
80.8 -0.0538411065936 0.231625393033 -3.55995871359e-06 1.48357685248e-06 0.27370557189 -0.111929371953 0.942422509193 -0.549830853939
80.8541666667 0.068055190146 0.232844784856 -7.11790607966e-06 9.38162997954e-07 0.30436077714 -0.278566926718 0.00439939741045 -0.0539923608303
80.9083333333 0.179385781288 0.173616752028 1.11673170977e-06 4.86241469844e-06 0.981505334377 -0.822417020798 0.254181206226 -1.2035009861
80.9625 0.241054311395 0.0617647208273 -6.05350533078e-06 -6.34932746379e-07 -0.566935777664 -0.151548266411 0.0268855839968 -0.65644288063
81.0166666667 0.241761058569 -0.061963558197 -4.80227208755e-06 -2.90665730063e-06 0.511800229549 -0.235890865326 0.667439818382 0.320106893778
81.0708333333 0.183287784457 -0.173058018088 -7.23464700059e-06 4.30451700595e-06 0.645389437675 -0.26986426115 0.929524838924 0.00420675333589
81.125 0.0652967691422 -0.24461106956 -9.64809828474e-07 -1.30822900246e-06 0.162672430277 -0.0384837724268 -0.124009072781 -0.120416976511
81.1791666667 -0.0504769794643 -0.250343203545 7.35092862669e-06 3.26144822793e-06 -0.418102264404 1.55318212509 -1.25427222252 -0.110956780612
81.2333333333 -0.162512511015 -0.202381014824 5.5992804846e-06 -2.7738622066e-06 1.69415080547 0.302903324366 0.464639186859 -0.0653600543737
81.2875 -0.241359591484 -0.0991226509213 -3.71716168956e-06 3.42390626429e-06 0.791240394115 -0.0508140996099 0.10307816416 0.481032967567
81.3416666667 -0.252819120884 0.0173161700368 -4.37586504631e-06 -5.7663410189e-06 0.644823551178 -0.32906165719 0.667940914631 -0.16844765842
81.3958333333 -0.222670152783 0.139350503683 -6.23316464043e-06 1.20808508655e-05 0.945785582066 -0.371817082167 -0.651361346245 -0.500247895718
81.45 -0.134121984243 0.236279562116 1.01744317362e-05 4.01721126764e-06 -1.4836448431 -0.219318151474 0.405956447124 1.48521029949
81.5041666667 0.0102124474943 0.27568936348 3.99111570459e-07 -4.15875774706e-07 0.230447292328 0.0858373567462 0.962762176991 -1.15395569801
81.5583333333 0.142678037286 0.222746655345 7.23047469364e-06 -7.50422259443e-06 1.04700648785 1.96007061005 0.032255101949 0.862877607346
81.6125 0.216540142894 0.121173925698 2.42483065449e-06 -1.19172100312e-05 -0.193537056446 -0.113364234567 0.271247118711 -0.226723700762
81.6666666667 0.245027154684 0.0151890991256 -1.08114536488e-05 -7.89302703197e-06 -1.54657566547 0.0502248108387 -0.104648180306 0.290844589472
81.7208333333 0.229978322983 -0.109361238778 -9.82245637715e-06 -3.06157062369e-06 0.467515081167 0.342545211315 -0.308378040791 -0.602504730225
81.775 0.149878785014 -0.214417546988 -3.88079843106e-06 1.5612147763e-05 0.33709821105 0.431066185236 1.54742777348 0.700201392174
81.8291666667 0.0318132378161 -0.253414213657 2.19093021769e-06 8.2303228055e-07 0.493968069553 0.632390856743 0.916489362717 1.87268459797
81.8833333333 -0.0902180373669 -0.235988616943 5.45664988749e-06 -7.05700040271e-06 0.816780209541 -1.85506212711 0.800214409828 0.559467613697
81.9375 -0.196978449821 -0.155852764845 -1.07976748041e-05 -6.49726871416e-06 0.575605094433 -0.0823683515191 -0.0379896573722 -0.216239541769
81.9916666667 -0.249417960644 -0.0350036397576 2.10649182009e-06 3.16537170875e-06 0.516719043255 0.661656558514 0.581879198551 -0.332510620356
82.0458333333 -0.23536413908 0.0981998220086 8.21978483145e-06 -5.71310965825e-06 -0.00575340678915 -0.77340400219 0.679535746574 -0.163012653589
82.1 -0.154218688607 0.198066189885 -4.229535989e-06 2.16740613723e-06 0.140132844448 -0.338221281767 0.0208143051714 0.648626208305
82.1541666667 -0.0330197401345 0.249862924218 4.82558380099e-06 -3.50495588464e-06 -0.193509608507 -0.159264847636 -0.0667613446712 -0.220444411039
82.2083333333 0.0981712266803 0.23459431529 4.2315355131e-06 -1.16539140436e-05 -0.0543803423643 -0.118626952171 1.43850076199 -0.428216934204
82.2625 0.201160430908 0.153721675277 1.63550986088e-08 1.38933603466e-06 0.603226959705 0.0796696320176 0.306023061275 0.460837811232
82.3166666667 0.249587491155 0.0306746512651 2.54805399891e-06 -5.39739767191e-06 -5.05515623093 -4.01382493973 0.133688911796 0.419251799583
82.3708333333 0.231042444706 -0.100172236562 -1.38860139032e-06 -6.87305100655e-06 0.161929771304 0.533939301968 0.0661593303084 0.250088572502
82.425 0.149548664689 -0.196189552546 2.27141094911e-06 8.12143935036e-06 0.0886018052697 0.423286646605 0.0199834313244 -0.621513307095
82.4791666667 0.0352762751281 -0.242910638452 2.25447706725e-06 1.06243405753e-05 9.59859371185 -14.309264183 6.40411520004 1.67285525799
82.5333333333 -0.0894115567207 -0.232985824347 -9.59196768235e-07 4.60944329461e-06 0.20682489872 1.60281288624 0.587156713009 0.403919100761
82.5875 -0.194206193089 -0.164861649275 -2.30776868193e-06 4.66246638098e-06 -0.100247934461 -0.62569206953 -0.0576970987022 0.0968559533358
