!Created with skrf (http://scikit-rf.org).
# GHz S RI R 50.0 
!freq ReS11 ImS11 ReS21 ImS21 ReS12 ImS12 ReS22 ImS22
75.0041666667 0.77780354023 0.931058585644 -1.02461590359e-05 1.50029144663e-08 2.11940097809 -0.923242628574 0.332201391459 -1.28452789783
75.0583333333 1.17136311531 0.310327470303 1.35027448778e-06 1.69528186689e-06 -0.105415865779 0.35542717576 -0.482359945774 -0.0893392711878
75.1125 1.11369276047 -0.382016718388 3.2287761087e-07 -1.92331484072e-07 0.578522324562 -1.3650932312 0.897646427155 -1.45258021355
75.1666666667 0.695050060749 -0.912307262421 -5.89336650592e-06 9.60416946327e-06 -0.317013293505 0.402674078941 -0.0579357109964 0.403047382832
75.2208333333 0.101834073663 -1.09738469124 2.26600241149e-06 3.96261020796e-06 3.18846988678 1.14560568333 -1.39647161961 3.50282645226
75.275 -0.47418153286 -0.950900375843 8.00210091256e-06 -2.49680169873e-06 0.125480383635 -0.147389993072 0.147665753961 0.0155960377306
75.3291666667 -0.87520980835 -0.553154706955 -2.93845488386e-07 -3.31244268637e-06 0.00883765798062 -0.407309055328 -0.489787757397 -0.0741117820144
75.3833333333 -1.01765584946 -0.027963468805 4.4995567805e-06 -6.75288993079e-06 0.384368509054 -0.510396182537 -0.745385944843 -1.23990380764
75.4375 -0.883395671844 0.491526156664 2.6590332709e-06 -4.56098496215e-06 -0.27718681097 -0.309198558331 -0.186025440693 -0.980003535748
75.4916666667 -0.50157725811 0.873620271683 3.0323867577e-06 -3.13074747282e-06 0.275855660439 -0.722848832607 -0.920151948929 0.83832013607
75.5458333333 0.017184169963 1.03102457523 -4.03116700909e-06 2.85735472971e-06 0.273587793112 0.0908201336861 -0.031157720834 0.382792115211
75.6 0.588688194752 0.871808648109 7.78391677159e-06 -6.15750877841e-06 -0.232174232602 -0.0240589734167 -1.72221076488 0.60282599926
75.6541666667 0.980923891068 0.422349393368 -1.46069953644e-06 -8.16300712358e-07 0.0956338122487 -0.0722593814135 0.246996834874 0.176665246487
75.7083333333 1.06226027012 -0.162304088473 3.84515578844e-06 -3.77583830868e-07 0.0292905904353 -0.0405646711588 0.606097459793 0.156258195639
75.7625 0.820223808289 -0.727664351463 4.64870390715e-06 8.72418752351e-07 0.710891246796 -0.1810066998 -0.453367292881 0.534395694733
75.8166666667 0.282000333071 -1.04366922379 -8.27005987958e-06 -1.7438684381e-06 -0.709564447403 0.293648093939 -1.30676424503 -0.610872447491
75.8708333333 -0.327889293432 -1.02112936974 3.70218526768e-06 1.26112126964e-05 0.362408280373 0.571630835533 -0.925760030746 0.393520921469
75.925 -0.784777522087 -0.670381784439 1.92345873984e-06 -1.94759309124e-06 -0.0504015088081 -0.385166019201 0.418428480625 -0.156554847956
75.9791666667 -0.959006428719 -0.201270982623 3.6131939396e-06 -6.48924151392e-06 1.4080530405 0.40418997407 -0.999575853348 0.34827452898
76.0333333333 -0.961430549622 0.302312254906 3.82034704671e-06 -4.61896615889e-06 -0.0162731260061 1.5061275959 -1.49206233025 -3.36718773842
76.0875 -0.674338519573 0.763130664825 -7.23085577192e-07 -2.34105846175e-06 -0.380118280649 0.735922396183 -0.278429478407 -0.347807258368
76.1416666667 -0.189576223493 1.01998960972 -2.49709955824e-07 -3.13393712759e-07 -0.0912853702903 -0.341181337833 0.345560729504 -0.677118062973
76.1958333333 0.363061338663 0.980268478394 -5.89498131376e-06 -1.71374267666e-07 -1.26233041286 -0.202522084117 0.0728578194976 -0.998209416866
76.25 0.794891655445 0.674468994141 -1.21264440622e-06 -3.60615240425e-06 -0.392596334219 0.8601962924 -0.551816940308 0.0739835947752
76.3041666667 1.06139600277 0.148465424776 -2.43127760768e-06 -3.3393537251e-06 0.857468307018 -1.62984097004 0.243646457791 -0.309904932976
76.3583333333 0.967670977116 -0.459191560745 -7.53251424612e-06 -8.66850496095e-06 -0.098601154983 -0.0205766092986 0.535962402821 -0.0308215934783
76.4125 0.5596960783 -0.887145638466 5.87935755902e-06 -4.84364818476e-06 -0.0391685366631 -0.281742841005 0.452945888042 0.468852549791
76.4666666667 0.0108003597707 -1.04113554955 -7.52298592488e-06 7.64186734159e-06 2.16706132889 -0.821280121803 2.83808588982 -0.383412152529
76.5208333333 -0.495683342218 -0.873701810837 -1.16463877475e-06 2.25394887821e-06 0.536655724049 -0.487832605839 0.117371097207 -0.322777092457
76.575 -0.863983333111 -0.481203734875 -1.96336941372e-06 3.39643270308e-06 -0.473874002695 -0.586007237434 -1.73391294479 -0.940527439117
76.6291666667 -0.955122172832 0.0149868410081 5.49925789528e-06 -9.41066082305e-06 0.389777779579 -0.970499992371 -0.175659954548 -0.206238180399
76.6833333333 -0.813514828682 0.471166729927 -1.45430237808e-06 -1.00623046819e-05 0.625732421875 -0.245139747858 1.72237682343 -0.15954247117
76.7375 -0.475390434265 0.802768588066 5.54116013518e-06 -3.47997740846e-07 -0.0402464009821 0.249824881554 0.672742307186 0.227043643594
76.7916666667 -0.00245580659248 0.943617343903 5.39032100733e-07 -1.34082017667e-06 -0.42324334383 -0.045577660203 -0.643450260162 2.09045267105
76.8458333333 0.529029607773 0.843039035797 5.44591648577e-06 -4.29728788731e-06 -3.49214935303 3.37091231346 1.5798368454 1.0811444521
76.9 0.894742310047 0.426481217146 6.50451556794e-06 -6.97672066963e-06 -0.0508637949824 0.362343996763 0.984565973282 1.0490629673
76.9541666667 0.975801408291 -0.14658638835 -8.24266044219e-06 -1.02835347207e-05 0.528010010719 -0.0540333874524 1.1099460125 1.80720806122
77.0083333333 0.740598499775 -0.627200901508 -1.34365268423e-06 2.08073720387e-06 0.136374995112 0.461986094713 0.328594088554 0.180020093918
77.0625 0.294134706259 -0.90265661478 -6.57956707073e-06 -6.21526214672e-06 -0.0738767459989 0.20520593226 -0.0236956514418 -0.261514812708
77.1166666667 -0.209065794945 -0.927373766899 -3.06704805553e-06 -9.40872450883e-06 0.39262765646 0.550065994263 -0.363437414169 0.146992623806
77.1708333333 -0.624681413174 -0.690590143204 -4.44022930424e-07 -5.238081485e-06 -1.57947611809 0.335559636354 1.02130126953 1.06915831566
77.225 -0.884259283543 -0.291450619698 -6.75539354233e-07 7.81831829499e-07 1.39242994785 0.889459788799 1.27974808216 0.497495830059
77.2791666667 -0.8963509202 0.190776333213 1.7761806248e-06 -5.76581624046e-06 -0.68225467205 -0.925854921341 1.78367137909 -0.597578167915
77.3333333333 -0.694367706776 0.615052342415 4.47663614978e-06 9.85966198641e-06 -0.21693482995 -0.362290769815 0.187744125724 -0.428656607866
77.3875 -0.306430667639 0.889438986778 5.05409980178e-06 1.63554182109e-06 0.0795202404261 -0.538026571274 -0.168813511729 0.468979358673
77.4416666667 0.183435082436 0.951301336288 6.74154080116e-06 1.29331519929e-05 -3.47880148888 2.95428061485 -2.48348760605 -2.75558233261
77.4958333333 0.659077703953 0.720919311047 4.85908094561e-06 -1.81412769962e-06 0.497748672962 -0.175050571561 0.263899981976 -0.491591364145
77.55 0.941101908684 0.289753764868 -3.41772351931e-06 6.95873723089e-06 0.667671561241 0.788456499577 -0.529282510281 0.403691202402
77.6041666667 0.955520510674 -0.232628121972 -1.0082882909e-05 -7.71691975388e-06 -0.204418003559 0.643870651722 0.516830921173 1.18456125259
77.6583333333 0.693724870682 -0.695250868797 -6.27111467111e-06 1.79392418431e-06 0.326653957367 -0.839364826679 -0.210960447788 -0.519700050354
77.7125 0.238079085946 -0.953278064728 -2.38709571931e-06 -3.31917476615e-06 -0.0231080502272 0.427566230297 0.766283810139 0.552440822124
77.7666666667 -0.267910927534 -0.948506712914 7.52736968934e-06 -7.06453874955e-06 0.652875185013 0.5589620471 -0.0167087633163 1.18540430069
77.8208333333 -0.703972399235 -0.662274956703 -2.72242527899e-06 1.23684196751e-06 0.932903766632 1.07557332516 1.00468683243 -2.19258546829
77.875 -0.933248579502 -0.212876155972 1.42752060128e-06 -9.84009147942e-07 0.422387182713 0.243035599589 0.124129742384 0.0977214574814
77.9291666667 -0.911999464035 0.286477029324 -7.80558639235e-06 -5.20650132785e-07 3.08274102211 5.90090179443 3.08070063591 2.3040792942
77.9833333333 -0.651891112328 0.691129267216 2.12702204294e-07 4.86046155856e-06 -0.409461736679 -0.803700506687 0.360100358725 0.278449624777
78.0375 -0.224635183811 0.92794495821 -1.71186354692e-06 -6.4951150307e-06 0.397110193968 0.886033952236 -0.278491199017 -1.05643558502
78.0916666667 0.284034430981 0.934794783592 -1.21895834582e-06 5.20090407008e-06 0.22063408792 -0.201840892434 0.165098100901 0.46826043725
78.1458333333 0.730471611023 0.679777026176 4.84107613374e-06 -8.47034425533e-06 0.182569473982 -1.54050183296 0.635257899761 0.441533446312
78.2 1.0142005682 0.207725420594 -4.06939079767e-06 6.88107593305e-06 0.28793990612 -0.169157147408 -0.356168657541 -0.120910450816
78.2541666667 0.987663805485 -0.377349227667 -1.44391378853e-06 -4.96497114e-06 -0.207821205258 0.140896931291 0.607770502567 0.253156304359
78.3083333333 0.640396773815 -0.875456213951 4.45178875452e-06 6.58759176986e-07 1.19829690456 -0.104255743325 1.30837261677 0.0828546583652
78.3625 0.0392202250659 -1.06980037689 1.06593015516e-05 -2.94129631584e-06 0.712306261063 -0.607121527195 0.00235583959147 0.172797858715
78.4166666667 -0.487457185984 -0.890239179134 7.28447912479e-06 2.25342409976e-06 2.46640849113 -1.48539030552 -0.832018613815 1.19843709469
78.4708333333 -0.851241827011 -0.534910619259 -9.76997489488e-06 -1.58020714025e-06 0.112329825759 0.0497739799321 -0.0939419418573 0.110805600882
78.525 -1.01432132721 -0.0231407471001 2.55849499808e-06 7.01378849044e-06 0.777676463127 -0.77230066061 0.0148391202092 1.31193208694
78.5791666667 -0.871171116829 0.512631893158 1.48338278905e-06 -1.31048000185e-06 0.332904487848 -0.591689586639 -0.736611068249 0.0126986438408
78.6333333333 -0.466565132141 0.893446743488 -9.00005397853e-06 2.21364598474e-06 0.264661341906 1.66518127918 0.0167132746428 1.37768280506
78.6875 0.0590576454997 0.975828826427 -1.02752051134e-06 2.99500993606e-06 0.0104049975052 0.557274758816 0.138119071722 -0.926836133003
78.7416666667 0.524025678635 0.804041922092 -2.439399168e-06 -1.19505705243e-06 -0.947278380394 -0.72026091814 -0.31988632679 -1.22946619987
78.7958333333 0.861942768097 0.443998932838 5.86574515182e-07 -1.02355525087e-05 -0.124886408448 0.762704133987 0.415853649378 1.05656242371
78.85 0.988664388657 -0.0263155121356 1.76425885456e-06 -8.69557698024e-06 0.493408977985 -0.0663402080536 -0.467783838511 0.0133073618636
78.9041666667 0.867525875568 -0.553535461426 1.82247242719e-06 -1.48783271925e-06 -0.666221439838 -0.493143051863 0.117208428681 -0.647131025791
78.9583333333 0.475365579128 -0.9249984622 5.186627277e-06 -6.87512567765e-07 0.0325123630464 2.58011555672 1.48962461948 0.87599748373
79.0125 -0.0687264576554 -1.06778585911 -3.05325852423e-06 2.73878390544e-06 1.71381688118 0.422191381454 0.70905393362 0.81144797802
79.0666666667 -0.633390426636 -0.882934272289 -1.79416383617e-06 1.89802767636e-06 -0.252628147602 0.571376502514 -0.428267985582 0.00876854732633
79.1208333333 -0.985116839409 -0.40916249156 -1.25300982745e-06 -3.3870533116e-06 0.189936697483 -0.101640552282 0.591180801392 0.115520685911
79.175 -1.01614391804 0.138536483049 -6.12029134572e-06 4.39366976934e-06 1.50932896137 -2.0028181076 -1.54703235626 0.24426843226
79.2291666667 -0.787807106972 0.618639171124 -3.88847212207e-08 1.01375944723e-05 0.332403749228 -0.0406468808651 0.359319239855 0.640781164169
79.2833333333 -0.376685082912 0.911550581455 4.50704555988e-06 1.7070423155e-06 0.485420823097 -0.068681076169 -0.0946080237627 0.239996388555
79.3375 0.0876452773809 0.994494497776 -8.24322341941e-06 -8.64934918354e-06 -1.5610960722 0.991927683353 0.766119778156 1.11437308788
79.3916666667 0.66425204277 0.809423565865 -2.81141842606e-06 1.36318158184e-06 0.654666244984 -0.976400613785 0.530309379101 -0.413347810507
79.4458333333 0.942539989948 0.359066963196 -3.43420992976e-07 -6.08133768765e-06 0.428780466318 -1.16970992088 0.641819000244 -0.208373680711
79.5 0.969966709614 -0.107515670359 3.53751552495e-08 7.40403152122e-07 0.249513223767 -0.0347496680915 0.26907107234 0.0931788235903
79.5541666667 0.846320748329 -0.510338425636 2.17537626668e-06 1.61603463766e-06 -3.96262001991 -1.20296573639 -1.23024427891 -2.69678068161
79.6083333333 0.514171540737 -0.899647057056 -1.92664856513e-06 -4.09232097809e-06 -0.00347499852069 0.230286836624 0.142220243812 0.25797072053
79.6625 -0.0173268765211 -1.06649875641 -1.44561988691e-06 -1.16539404189e-05 0.215848430991 -0.127960011363 -8.78344962985e-06 -0.893341243267
79.7166666667 -0.569827854633 -0.910864770412 1.97315671358e-06 3.41151462635e-06 -0.290403991938 -0.254924178123 -0.191600009799 -0.193726152182
79.7708333333 -0.971129536629 -0.476104348898 2.74184685622e-06 -3.60995909432e-06 -0.24061858654 0.000911873416044 -0.348248064518 -0.0659360960126
79.825 -1.0652692318 0.0859861448407 -8.44175872317e-07 -7.51107563701e-06 0.396404445171 0.192437455058 -0.410515338182 0.684047102928
79.8791666667 -0.856492757797 0.601687967777 -5.05383241034e-06 4.43270380401e-07 0.464021623135 -0.715927779675 -0.2604855299 -0.112272940576
79.9333333333 -0.449722081423 0.928221523762 -3.80302822123e-06 2.15686191041e-06 0.0874995216727 0.236184671521 -0.765884757042 0.44477647543
79.9875 0.0834358483553 1.03076338768 -2.85546593659e-06 3.48313528775e-06 1.91911804676 6.05245113373 3.93122243881 5.47449064255
80.0416666667 0.637731194496 0.800088047981 2.97262795357e-06 3.2287657632e-06 0.116675712168 0.734525442123 0.69521933794 0.150900781155
80.0958333333 0.899446070194 0.413586497307 -4.31453827332e-06 2.30026807913e-06 0.798774242401 -0.905972599983 -0.142667561769 0.460538625717
80.15 0.949345827103 -0.0229954626411 3.82988702086e-07 2.76217951978e-06 -0.0931473225355 0.382551848888 0.728803992271 0.966724812984
80.2041666667 0.843621432781 -0.403861939907 4.99423413203e-06 4.74752641821e-06 -1.2355029583 -0.35120138526 2.83461809158 3.9578564167
80.2583333333 0.569924175739 -0.794979870319 -5.62122659176e-06 1.79772723641e-06 -0.0513354726136 0.588930666447 0.626729726791 -1.01276540756
80.3125 0.104577548802 -1.01775228977 -2.15321142605e-06 3.18673437505e-06 0.353528290987 -0.257838070393 0.0188537780195 0.125762224197
80.3666666667 -0.445777952671 -0.940366923809 2.62536741502e-06 -4.02471732741e-06 0.0878829360008 -0.377225100994 0.108613438904 0.0452466271818
80.4208333333 -0.847562670708 -0.577216565609 2.69079487225e-06 2.72724560091e-06 -0.47610604763 -0.00515906047076 0.181882828474 -0.607628107071
80.475 -1.05663907528 -0.0670790299773 -4.72228151693e-07 4.08680534747e-06 0.0738465413451 0.587277591228 0.098478153348 0.475424081087
80.5291666667 -0.912999153137 0.498189419508 7.76230081101e-06 2.75784645964e-06 0.407314121723 0.202740222216 0.516252160072 -0.211695551872
80.5833333333 -0.497810572386 0.893969655037 3.08815265271e-06 -2.7194090535e-07 -0.509890377522 0.0010722973384 0.630069255829 -0.0191486310214
80.6375 0.0195631850511 0.9854170084 1.78279867669e-06 -7.15357418812e-06 0.710933923721 -0.00312754744664 0.15763361752 0.2570489645
80.6916666667 0.466914534569 0.83960968256 3.40038468494e-07 -2.02226988222e-06 1.76739299297 -0.215856358409 -0.579505503178 -0.037875842303
80.7458333333 0.798728168011 0.494210422039 -7.08298648533e-06 7.77173590905e-06 0.0513457320631 0.456206381321 0.963354408741 -0.419401317835
80.8 0.922360539436 0.1303024441 -2.16697685573e-06 9.93007560623e-08 0.250691562891 -0.196886733174 1.04456484318 -0.945568442345
80.8541666667 0.905810236931 -0.318662583828 -7.59876229495e-06 -7.57502266424e-06 -0.0638760328293 -0.0614212118089 0.00121808995027 0.384692043066
80.9083333333 0.678679645061 -0.742208182812 -3.44402906194e-07 2.52391009781e-06 -0.0571677386761 -0.0474570281804 -0.200240597129 0.418101906776
80.9625 0.237363055348 -1.00106298923 3.65283017345e-06 2.23894721785e-06 -0.597691893578 -1.19854426384 0.279669493437 -3.52020335197
81.0166666667 -0.286762535572 -1.01957297325 -9.76824503596e-06 -3.53166774403e-06 0.266108602285 0.420479148626 0.0956463143229 -0.046185914427
81.0708333333 -0.783787608147 -0.754082262516 -6.72457599649e-06 -5.20363983014e-06 -0.354442507029 -0.0372255034745 -0.281147539616 0.224929317832
81.125 -1.08097016811 -0.191069990396 -6.44479041512e-06 7.33368381134e-07 3.86574649811 3.01747584343 7.17231321335 4.19991445541
81.1791666667 -1.03849923611 0.351394742727 1.17151579104e-07 6.25776237939e-06 1.73860251904 -0.357941478491 0.0964361429214 -1.28716433048
81.2333333333 -0.727286458015 0.81008887291 9.17809211387e-06 -7.41098347135e-07 0.869732439518 0.559905827045 0.549293577671 0.380342781544
81.2875 -0.213295951486 1.03461968899 -1.12966481538e-05 5.64414267501e-06 0.102652356029 0.282954722643 -1.6068392992 1.20726037025
81.3416666667 0.258477658033 0.95324909687 -1.11578465294e-05 -3.34165247295e-06 -1.25334942341 0.460621386766 -0.678989887238 0.0610171668231
81.3958333333 0.675969302654 0.728587388992 7.28849772713e-06 1.70331384197e-06 -0.542578995228 0.32063806057 0.611289620399 1.22036206722
81.45 0.949111461639 0.343871742487 2.00371437131e-06 -5.83630344408e-06 -0.0860428586602 1.02970814705 1.66186988354 3.36187624931
81.5041666667 1.00674748421 -0.185285806656 4.59805096398e-06 -1.79689357083e-06 0.136450111866 -0.383956968784 0.332031816244 0.0238471515477
81.5583333333 0.766529619694 -0.631709516048 -2.62776779891e-06 -6.1217633629e-06 0.0343575552106 -0.242857798934 -0.596288859844 -0.422812730074
81.6125 0.384529262781 -0.877828419209 1.75371354771e-07 -2.09359271253e-07 3.06607842445 0.323551625013 1.94815909863 1.06685853004
81.6666666667 -0.0261776559055 -0.98033541441 2.95980748888e-06 -5.33144714154e-07 0.62170290947 -0.897048830986 0.648452162743 -1.88350212574
81.7208333333 -0.538228332996 -0.9094363451 -3.54960707227e-06 -3.54093685928e-06 -0.247089579701 -0.246837720275 -0.37270155549 1.00984215736
81.775 -0.983402013779 -0.54516017437 1.90907690012e-06 -3.67809320778e-06 -0.893690645695 -0.742890655994 0.153015613556 0.168761014938
81.8291666667 -1.13411128521 0.00533533282578 -9.3262815426e-07 -6.22945299256e-06 0.158827379346 -0.807651460171 0.498805254698 0.265486210585
81.8833333333 -0.986391723156 0.572677969933 3.43786155099e-07 6.67715198688e-07 -0.967269361019 -0.409329950809 0.259882897139 0.40757060051
81.9375 -0.522473692894 1.00437164307 1.70844259628e-06 -2.25170265367e-06 0.461719155312 0.219747856259 -0.00869795773178 0.268855929375
81.9916666667 0.0786623433232 1.11237251759 4.6177839863e-07 5.42312534435e-07 -1.66295671463 -2.34109663963 -0.208295673132 -0.98703199625
82.0458333333 0.629474580288 0.905355930328 6.76400259181e-06 2.75380352832e-06 -0.111108630896 0.188291475177 0.23356898129 -0.188427045941
82.1 0.946715474129 0.473606973886 1.12130999241e-06 5.14988551004e-06 0.374148100615 0.59159642458 -0.20864456892 -0.508554279804
82.1541666667 1.04217529297 -0.040016900748 1.53676285208e-06 -5.75680769543e-06 0.462993294001 0.049592025578 -0.144464790821 1.00983703136
82.2083333333 0.895272433758 -0.528289675713 2.3203690489e-06 3.78308845939e-06 0.40819132328 0.368622273207 0.159897238016 -0.384472042322
82.2625 0.54154753685 -0.878463625908 9.34438503464e-06 -3.95957704313e-06 0.386153757572 -0.656335294247 -0.25657171011 -1.78202056885
82.3166666667 0.0604922957718 -1.03122401237 2.00595263777e-06 4.62305706606e-06 -0.725897789001 0.71039891243 1.04406404495 0.290138423443
82.3708333333 -0.455925524235 -0.949457883835 -2.02034175345e-06 6.17821024207e-06 0.60487395525 0.299343973398 1.07969200611 -1.23173880577
82.425 -0.854954242706 -0.616709470749 9.11614279175e-07 -2.04304319595e-06 0.167234510183 0.211698174477 -0.306455641985 0.634475529194
82.4791666667 -1.06522965431 -0.124480143189 8.24347171147e-06 -5.39753091289e-06 0.69699794054 2.55437135696 1.61319541931 2.07348823547
82.5333333333 -1.01280736923 0.442397683859 -3.74573482986e-06 2.92013760372e-06 -0.0317943394184 0.798765838146 0.443691939116 0.423432260752
82.5875 -0.667689800262 0.912999510765 -2.75113762882e-07 1.39004635002e-06 0.79597401619 1.21468484402 -0.134902372956 -0.082344442606
