!Created with skrf (http://scikit-rf.org).
# GHz S RI R 50.0 
!freq ReS11 ImS11 ReS21 ImS21 ReS12 ImS12 ReS22 ImS22
75.0041666667 -0.0354045554996 0.012394502759 0.29033613205 -0.763163745403 -1.00071501732 -1.56072556973 -2.40846204758 -1.31504678726
75.0583333333 -0.0265894029289 0.029009623453 -0.665531396866 -0.463126659393 -0.8957041502 -1.5803822279 -0.76635658741 1.1314368248
75.1125 -0.0105418171734 0.0369859710336 -0.634258925915 0.458240687847 3.55987381935 4.55791330338 -0.777743935585 3.18063044548
75.1666666667 0.0062592336908 0.0359230451286 0.0537769198418 0.7614325881 0.489644914865 0.611177146435 -0.157242655754 0.606686770916
75.2208333333 0.0176059827209 0.0281045548618 0.659958839417 0.359484881163 0.409043520689 0.904062569141 0.614340424538 -0.362518697977
75.275 0.0235159676522 0.0188520401716 0.525039672852 -0.525901854038 0.343924373388 1.21064579487 0.835311233997 -0.395469397306
75.3291666667 0.026667246595 0.0107743078843 -0.430284261703 -0.585358679295 0.710337400436 -0.135344177485 -0.562125742435 -0.515067279339
75.3833333333 0.0286481790245 0.00247462117113 -0.685012698174 0.192842260003 0.815835237503 0.826602041721 0.184954419732 0.766485691071
75.4375 0.0282201189548 -0.00694802869111 -0.202654615045 0.661908626556 -0.423221111298 0.0686352849007 0.200527071953 0.349782973528
75.4916666667 0.0243409872055 -0.0163302719593 0.504892110825 0.4437943995 -0.143795236945 -1.67015576363 -0.225082054734 -0.39470949769
75.5458333333 0.0170768518001 -0.0241518244147 0.524581134319 -0.434091031551 0.0109724057838 -0.537269353867 0.165388330817 -1.20658564568
75.6 0.00674522295594 -0.0286272261292 -0.343074828386 -0.57444268465 -0.0718429088593 0.147293537855 0.25135165453 0.961575508118
75.6541666667 -0.00431463727728 -0.0288245081902 -0.644204199314 0.0123158320785 0.0559004209936 0.24893194437 0.0404759086668 -0.435032188892
75.7083333333 -0.0140361087397 -0.0245381873101 -0.389061510563 0.519304156303 -0.0702177509665 -0.359762012959 0.100716069341 0.225188672543
75.7625 -0.0219151042402 -0.0170550122857 0.330186516047 0.561476767063 1.03566741943 -0.2877125144 -1.3655885458 -0.657688200474
75.8166666667 -0.0250602867454 -0.00632659113035 0.606880605221 -0.234629899263 -0.0144703742117 -0.0515771694481 0.100049167871 -0.1087224558
75.8708333333 -0.022974582389 0.00344672519714 -0.0197103694081 -0.647347211838 0.137379318476 0.197563961148 0.211885049939 -1.06185150146
75.925 -0.01764126122 0.00882786884904 -0.557617008686 -0.34520766139 -1.16581141949 -2.24973154068 -1.448995471 -0.801700532436
75.9791666667 -0.0131671149284 0.0103709595278 -0.557919740677 0.309804588556 0.162561312318 0.114091821015 0.33082473278 0.171581983566
76.0333333333 -0.0113069759682 0.0119375428185 0.148965984583 0.61615562439 0.302131086588 0.463121920824 0.533918380737 0.660317718983
76.0875 -0.00944748800248 0.0154475420713 0.635186672211 0.0196691825986 0.455174684525 3.8604850769 0.55997043848 0.0837921202183
76.1416666667 -0.00438671605662 0.0199764855206 0.334445089102 -0.543049991131 0.795198321342 0.486454665661 0.672794520855 -0.118936754763
76.1958333333 0.00405215052888 0.0212311726063 -0.242581933737 -0.58604747057 1.03118515015 -0.346671849489 1.24086880684 0.0185562651604
76.25 0.0119101442397 0.0175019651651 -0.646415233612 -0.0262707266957 1.05086517334 0.0849544629455 1.86313390732 -1.10078620911
76.3041666667 0.0169378481805 0.00954892951995 -0.189080357552 0.617613315582 0.866380870342 0.270158231258 1.11845815182 0.647974491119
76.3583333333 0.0153921097517 0.00168289791327 0.512522339821 0.39390000701 0.355315059423 -0.451192766428 -0.183970212936 -0.203733503819
76.4125 0.0110739180818 -0.000825550057925 0.591385304928 -0.220873534679 0.0484931021929 0.114060685039 0.737257659435 0.16399410367
76.4666666667 0.0101297749206 0.000996641232632 0.0967480391264 -0.62657725811 -0.0394668914378 -0.487640708685 -0.965709149837 0.119774706662
76.5208333333 0.0141838258132 0.00155147607438 -0.570210695267 -0.277547329664 -1.60042834282 0.290142059326 -0.811626255512 0.980343341827
76.575 0.0196435358375 -0.00476172380149 -0.390802174807 0.493959873915 -0.0708317756653 0.131418541074 0.753638803959 0.168245732784
76.6291666667 0.018747612834 -0.0158410333097 0.331359326839 0.524576067924 0.341698884964 -0.565247535706 0.318777769804 -0.265136897564
76.6833333333 0.00990687403828 -0.0250555481762 0.612261533737 -0.0589475333691 -0.0262507684529 0.386556833982 0.1305873245 0.293305158615
76.7375 -0.00308899511583 -0.0266460459679 0.203798875213 -0.594966411591 0.766388833523 -0.36082726717 0.772575557232 -0.108027979732
76.7916666667 -0.0138850407675 -0.0208185464144 -0.502797842026 -0.388286918402 -0.180403292179 -0.488133460283 0.481751918793 0.675732910633
76.8458333333 -0.0191432666034 -0.0122082205489 -0.525028347969 0.345144122839 -0.2445730865 -0.326405078173 1.58790957928 -1.40542042255
76.9 -0.018860951066 -0.00555196823552 0.121606245637 0.603164970875 0.217924147844 0.773787379265 0.286104112864 -0.0436143241823
76.9541666667 -0.0196166560054 -0.00108304573223 0.589587450027 0.135839059949 -0.422760725021 -2.00418496132 -3.17272830009 -0.757869184017
77.0083333333 -0.0219449866563 0.00480554718524 0.352674543858 -0.485267907381 0.677245438099 -0.230751097202 0.485320776701 0.490431159735
77.0625 -0.0211330000311 0.015526060015 -0.305442392826 -0.493523836136 0.198386669159 -0.339783847332 -0.71642100811 0.34894746542
77.1166666667 -0.0123362857848 0.026484830305 0.169364482164 -0.568687438965 0.481135755777 -0.0264787506312 0.133899450302 -0.519410014153
77.1708333333 0.00320701417513 0.0301623903215 -0.399512767792 -0.442760527134 1.47515559196 -0.238735571504 -0.75994259119 -1.05387723446
77.225 0.0189014468342 0.0225191842765 -0.564909219742 0.133734360337 -0.453622817993 0.3207064569 0.186753898859 0.294305980206
77.2791666667 0.0246265362948 0.00599156552926 -0.111325591803 0.570175528526 -0.292896002531 -0.374843120575 0.178713366389 -1.00133955479
77.3333333333 0.01796512492 -0.00765339797363 0.48970451951 0.311539083719 0.857251107693 1.30375552177 0.304390221834 0.662676036358
77.3875 0.00614102790132 -0.010669647716 0.494831591845 -0.28843036294 -0.906351685524 -0.492321997881 0.450852155685 0.477874219418
77.4416666667 -0.000747582234908 -0.00464569497854 -0.000206717319088 -0.583252251148 -1.22268104553 -0.774195075035 -0.237468257546 0.546118199825
77.4958333333 0.00165069033392 0.00190638098866 -0.511964917183 -0.261685580015 1.00769364834 0.334646552801 1.56812870502 1.3937933445
77.55 0.0082348389551 0.00135473150294 -0.444059371948 0.377063274384 -0.227927327156 -0.566500067711 -0.836819291115 -0.172292873263
77.6041666667 0.0106260636821 -0.00610297266394 0.172613784671 0.562648952007 -0.655958533287 -0.191028863192 0.888301610947 -0.750160157681
77.6583333333 0.00438520219177 -0.0133219826967 0.570401489735 0.147824451327 2.3960506916 -0.189947754145 1.30909955502 -0.809928297997
77.7125 -0.00580620067194 -0.0120250834152 0.432526946068 -0.383757978678 0.412462711334 0.527342557907 -0.00906440988183 -1.69260299206
77.7666666667 -0.0104872956872 -0.00302981049754 -0.119148597121 -0.573333203793 -0.201934099197 -0.145227760077 -0.0832220762968 0.422201812267
77.8208333333 -0.00495021976531 0.00575372669846 -0.56923532486 -0.138061970472 -0.442525446415 0.148072585464 -0.233246982098 -0.534719049931
77.875 0.00561876269057 0.00478703761473 -0.42425018549 0.419057309628 -0.525722503662 -0.017733566463 -0.0107941338792 0.107728995383
77.9291666667 0.0103682503104 -0.00614594249055 0.0741024017334 0.593126416206 1.51174247265 -0.630348324776 -0.143546462059 -0.174104660749
77.9833333333 0.00267481990159 -0.017412154004 0.525098741055 0.277855247259 -0.988663554192 -0.250895857811 -0.529684841633 0.759343981743
78.0375 -0.0128156458959 -0.017911111936 0.496191710234 -0.334435552359 -0.0353288762271 0.406348198652 -0.156374931335 0.923548042774
78.0916666667 -0.0243108291179 -0.00546262972057 -0.00590673787519 -0.597030520439 -0.34124058485 -0.26401668787 -0.26785120368 -1.5829975605
78.1458333333 -0.0226201955229 0.0111765898764 -0.492828696966 -0.366996645927 -0.055191360414 -0.528469502926 0.0554654337466 -1.46666705608
78.2 -0.0103889377788 0.0209732335061 -0.586016893387 0.22350974381 -0.353958308697 0.00176435837056 -0.759556412697 0.0720187351108
78.2541666667 0.00275117438287 0.019017631188 -0.031073352322 0.619298100471 -3.37548041344 1.1858651638 2.28067040443 0.872726500034
78.3083333333 0.00802058167756 0.0112508814782 0.553028762341 0.30691421032 0.141721859574 0.307547152042 0.023149849847 0.375834792852
78.3625 0.00606718845665 0.00673896633089 0.568841993809 -0.288000136614 0.0883753299713 -0.485882222652 0.462056577206 0.27168238163
78.4166666667 0.00553658325225 0.0086243422702 0.138910129666 -0.621064603329 0.417604088783 0.437317043543 -0.913869798183 0.887071192265
78.4708333333 0.0110778054222 0.0102655710652 -0.497266113758 -0.434708744287 -0.787736415863 5.15195226669 -1.67302191257 -0.0781024619937
78.525 0.0195091366768 0.00481496984139 -0.594455361366 0.346279770136 -0.45396104455 1.39755558968 -1.03105938435 2.32172250748
78.5791666667 0.0215461906046 -0.00868084002286 0.0740751773119 0.677498698235 0.387106269598 1.60692596436 0.921025574207 0.446671575308
78.6333333333 0.0115127451718 -0.0210082810372 0.591909229755 0.3375441432 -2.05605554581 -0.587483942509 1.53589236736 0.284282535315
78.6875 -0.00409710314125 -0.0206493102014 0.564929544926 -0.306359708309 -0.455145984888 -0.444521278143 0.503507316113 0.0130191333592
78.7416666667 -0.0126771656796 -0.0102674281225 -0.0468327701092 -0.639954984188 -0.156103134155 0.725609719753 0.0161397848278 -0.135239467025
78.7958333333 -0.0103923380375 0.000627228117082 -0.633053958416 -0.148746803403 0.477888613939 -0.159457147121 0.779511749744 -0.43674582243
78.85 -0.00208882591687 0.00365113792941 -0.431607782841 0.48404443264 -0.0479597374797 -0.486117452383 0.530814290047 -0.0770523026586
78.9041666667 0.00356999970973 -0.00213730963878 0.150760635734 0.644902765751 -0.303933173418 0.65629285574 0.554395794868 0.361117362976
78.9583333333 0.000116578339657 -0.0100436210632 0.63797968626 0.193063482642 -0.0730259343982 -0.307065546513 0.201223284006 -0.0601629540324
79.0125 -0.010239681229 -0.0113084949553 0.442455470562 -0.492538541555 0.768117189407 1.15646076202 1.21835136414 -0.618882775307
79.0666666667 -0.018667684868 -0.0021530687809 -0.209462285042 -0.627904832363 0.34553784132 -1.00535619259 0.0771819129586 -1.5705280304
79.1208333333 -0.0163815803826 0.0110996970907 -0.628100633621 -0.209315314889 0.839569449425 0.182855188847 0.222596094012 0.944005787373
79.175 -0.00501755252481 0.0178832467645 -0.528710484505 0.399783521891 0.719790220261 0.0592544488609 -1.93492043018 2.97445821762
79.2291666667 0.00718106050044 0.0140462173149 0.079950556159 0.658903717995 1.765635252 0.667744159698 -0.35868242383 -0.638361930847
79.2833333333 0.0114714298397 0.00342309381813 0.59142524004 0.278856545687 0.978765249252 0.276225328445 0.0866372734308 -0.326719850302
79.3375 0.00630361167714 -0.00547726452351 0.593531548977 -0.322712361813 -1.0047659874 1.37452733517 0.61435854435 1.77320349216
79.3916666667 -0.00431010918692 -0.006025636103 0.0627686306834 -0.766094684601 0.296399414539 -0.528537333012 1.52020633221 1.08412909508
79.4458333333 -0.00883967895061 0.00306964595802 -0.699404060841 -0.303273051977 1.80991494656 0.283057749271 1.96646690369 -0.57722890377
79.5 -0.00437076203525 0.0111116645858 -0.546022593975 0.448748320341 -20.8495559692 2.20204973221 -20.2112178802 -6.8851890564
79.5541666667 0.0037558330223 0.0137815857306 0.0157045628875 0.688858985901 0.099614687264 0.0530271418393 0.626057446003 0.0506772398949
79.6083333333 0.0123227639124 0.00978430919349 0.560272216797 0.406943559647 -0.403807461262 -0.61397254467 0.326989173889 0.937530040741
79.6625 0.0152313970029 0.00119670014828 0.658730745316 -0.248362079263 0.382503896952 -1.03626859188 -0.387007534504 0.518249690533
79.7166666667 0.0120600834489 -0.005276421085 0.0573050118983 -0.704676806927 -0.863043606281 0.00581404427066 -0.288225144148 -0.424844145775
79.7708333333 0.00781617313623 -0.00746618863195 -0.633511781693 -0.318331032991 1.41889727116 2.03527355194 0.389038711786 -0.463053971529
79.825 0.00576957641169 -0.00752601446584 -0.544234037399 0.44906014204 0.299744457006 -0.0674277544022 0.647758126259 0.33548527956
79.8791666667 0.00538452528417 -0.00879443436861 0.16061834991 0.695753991604 -0.377061396837 0.422429442406 -0.349134892225 0.131920352578
79.9333333333 0.0039190351963 -0.0121160764247 0.705007016659 0.219140172005 -0.143320977688 0.165510728955 -0.64700460434 1.20667052269
79.9875 -0.00128848606255 -0.0156884416938 0.577799141407 -0.429394900799 0.132784917951 0.103612884879 -0.0339387618005 0.172035858035
80.0416666667 -0.010324344039 -0.0144471591339 -0.0373754799366 -0.704349279404 -0.00183760351501 -0.29526117444 -2.29185891151 3.78093910217
80.0958333333 -0.0153013272211 -0.00851625110954 -0.616219818592 -0.300168544054 1.43395078182 0.649494111538 -0.146670550108 0.372435033321
80.15 -0.015606882982 -0.00191993243061 -0.565565943718 0.361541777849 -0.288668930531 0.278784036636 -0.674197733402 0.0816484987736
80.2041666667 -0.0138468807563 0.00227828673087 -0.0394907407463 0.672613203526 -0.438071250916 -0.83001101017 0.299610257149 1.16013121605
80.2583333333 -0.0119065530598 0.00584308197722 0.562952280045 0.359994977713 -0.684611260891 0.755656182766 -1.02752101421 -0.467161118984
80.3125 -0.0110505102202 0.00832928810269 0.560363411903 -0.411044478416 -0.712995409966 -0.524353682995 0.402010768652 -0.830271780491
80.3666666667 -0.00894897244871 0.0128585891798 -0.0867184922099 -0.661101400852 -0.00790930166841 0.172753736377 0.490772485733 -0.469695299864
80.4208333333 -0.00368545344099 0.0169094335288 -0.614647448063 -0.261950045824 -0.399663120508 -0.121553726494 -0.514376521111 -0.8117659688
80.475 0.00470942491665 0.0192929971963 -0.538146615028 0.388248383999 -1.59320604801 0.803897440434 -0.555566191673 0.0978885889053
80.5291666667 0.0147020332515 0.0142772588879 0.182481735945 0.635889649391 -0.0994380488992 0.417176246643 1.21301150322 0.435113877058
80.5833333333 0.0197280868888 0.00324737047777 0.674907386303 0.00710712838918 0.559268474579 -0.520294487476 0.782663583755 0.737478852272
80.6375 0.0162339154631 -0.00768702523783 0.289395183325 -0.586912930012 0.358439177275 -0.0280056558549 -0.0562178716063 -0.0920351669192
80.6916666667 0.00740139884874 -0.0129840737209 -0.292515099049 -0.565657675266 0.578919410706 -0.0502763837576 -0.0875028222799 0.0356059782207
80.7458333333 -0.0018258941127 -0.0111604081467 -0.635572314262 -0.0344726778567 0.722058951855 0.485837042332 1.29526174068 0.28585973382
80.8 -0.00595631729811 -0.00450823130086 -0.281565338373 0.591585040092 0.325494408607 1.06625390053 -0.706550836563 1.44533264637
80.8541666667 -0.00385842658579 0.00243664276786 0.458494842052 0.44748929143 0.17981800437 0.200866386294 0.272039979696 -2.16642212868
80.9083333333 0.00150765967555 0.00496728159487 0.629572570324 -0.185380980372 0.155263215303 -0.513159394264 0.504865050316 0.490464806557
80.9625 0.00783387385309 0.00311483233236 0.22113956511 -0.601058065891 -0.346388757229 0.0647489577532 -0.6876770854 -0.0459894537926
81.0166666667 0.0100603587925 -0.00348301208578 -0.396337330341 -0.516961038113 -0.840044379234 0.327307850122 -0.44699639082 -0.088924922049
81.0708333333 0.00683214375749 -0.00938237924129 -0.644227385521 0.13817897439 -0.855946004391 1.21523141861 -0.560409843922 1.13011693954
81.125 0.000886919442564 -0.0119540439919 -0.179727137089 0.643846929073 -0.0818655192852 -0.281959295273 -0.139916434884 0.626083791256
81.1791666667 -0.00350235914811 -0.0116294249892 0.456597298384 0.4983086586 -0.0299682058394 -0.14427575469 0.285071253777 -0.108638554811
81.2333333333 -0.00742576085031 -0.00884367432445 0.666185796261 -0.079585634172 5.56461000443 3.86843824387 -0.720614612103 -0.802425682545
81.2875 -0.00869386363775 -0.00580815179273 0.288955509663 -0.608741343021 0.0704728364944 -0.680376887321 0.382208555937 -0.221733212471
81.3416666667 -0.0092243924737 -0.00638891616836 -0.503308057785 0.432417154312 1.00386989117 -0.214400693774 0.899014353752 0.00258141383529
81.3958333333 -0.0127013418823 -0.00261385925114 -0.186717540026 0.659484744072 0.973230063915 -0.869154036045 1.58254039288 1.33987009525
81.45 -0.0141480583698 0.00217057415284 0.230827569962 0.640324354172 -1.01229977608 -0.577575206757 1.17661714554 -1.78547883034
81.5041666667 -0.0145148010924 0.00892434827983 0.571393787861 0.38317489624 2.21808290482 -0.61751550436 0.797847807407 -0.218618676066
81.5583333333 -0.010913297534 0.0163729321212 0.679155409336 -0.00274279061705 -0.0454219840467 -0.226649284363 0.9393466115 0.295095086098
81.6125 -0.00284402817488 0.019505713135 0.576823711395 -0.370150178671 -3.66875600815 -1.47024464607 1.94331860542 -0.610262155533
81.6666666667 0.00446517579257 0.0189361050725 0.281961530447 -0.647730648518 -0.050512176007 -0.271972805262 0.202040284872 -1.01933896542
81.7208333333 0.0128970807418 0.0167665816844 -0.111094094813 -0.690199971199 0.202096670866 0.0579370781779 0.877633273602 0.679360687733
81.775 0.019596606493 0.00978869572282 -0.482980847359 -0.517874062061 1.17831265926 -0.676858723164 0.644650757313 -1.21103072166
81.8291666667 0.0216622799635 0.00151629431639 -0.681448876858 -0.165050432086 0.953562855721 0.105168074369 -0.0790085941553 0.0346931070089
81.8833333333 0.0194096677005 -0.0076792309992 -0.666909277439 0.242971897125 0.0673576667905 -0.175518155098 0.111914329231 0.0780347660184
81.9375 0.0117604909465 -0.0150797720999 -0.411252766848 0.568547308445 -0.0464871823788 -0.869037985802 0.888906121254 -0.978020370007
81.9916666667 0.00241855182685 -0.0159843042493 -0.0238443575799 0.708130598068 -0.00791678112 -0.354797065258 1.0779992342 -0.382610231638
82.0458333333 -0.0038651668001 -0.0120525825769 0.403714895248 0.604046463966 0.128787174821 -0.270018100739 0.433131098747 -0.500641942024
82.1 -0.0067802653648 -0.00769681017846 0.685356318951 0.224582105875 0.383326888084 0.562290430069 0.412360191345 -0.132491379976
82.1541666667 -0.00763531867415 -0.00157370965462 0.698577880859 -0.251868396997 0.270753502846 0.254179805517 -0.0322763994336 -0.00192432967015
82.2083333333 -0.00329426280223 0.00211733137257 0.434523642063 -0.616285085678 -0.217571735382 -0.602631092072 -0.312804162502 -0.519041121006
82.2625 0.00122170918621 0.000631895789411 0.094543017447 -0.716371119022 1.24336528778 -1.36190295219 1.33421170712 -0.344615787268
82.3166666667 0.00142800819594 -0.00314045930281 -0.268563568592 -0.696914076805 -0.393920093775 -0.03684604913 1.04759538174 -0.121676415205
82.3708333333 -0.00134690420236 -0.00481475004926 -0.63290143013 -0.409195750952 -1.52803492546 0.206898778677 1.46925663948 1.36861073971
82.425 -0.00323541369289 -0.0023254903499 -0.747463643551 0.0820041447878 0.441983371973 -0.680834293365 0.588851630688 -0.837082326412
82.4791666667 -0.00302447401918 -0.00245577911846 -0.554553329945 0.501660346985 -0.192666038871 0.395038157701 0.437989532948 -0.408969670534
82.5333333333 -0.00469537032768 -0.00132607109845 -0.217973172665 0.709731340408 -0.829988479614 -1.90058064461 5.81838989258 14.6450748444
82.5875 -0.00341617292725 -0.000485958938953 0.171808764338 0.730578482151 -0.949495971203 1.92160689831 1.36406481266 -1.25132656097
82.6416666667 -0.00437801796943 -0.00259266677313 0.525724589825 0.523360073566 -0.592758476734 -0.00164211424999 -0.742435634136 0.200801089406
82.6958333333 -0.0105754612014 0.000464303971967 0.699387490749 0.177335232496 -0.833253920078 -0.540524601936 0.0537539198995 0.226638227701
82.75 -0.00920805241913 0.00662429910153 0.708785355091 -0.210698753595 -1.49657177925 -1.71595811844 0.940542221069 -2.3016705513
