!Created with skrf (http://scikit-rf.org).
# GHz S RI R 50.0 
!freq ReS11 ImS11 ReS21 ImS21 ReS12 ImS12 ReS22 ImS22
75.0041666667 -0.234276369214 1.13327157497 6.64273602524e-06 -6.81694791638e-06 -1.11564803123 -2.9074485302 0.153181254864 0.786664783955
75.0583333333 0.548837959766 1.03906393051 -1.44505174831e-05 -3.59300315722e-06 -0.442845672369 0.449220776558 0.194253832102 0.0389526113868
75.1125 1.06978273392 0.458649933338 5.53909285372e-06 1.91433878172e-06 0.444146931171 -0.618892431259 0.591223120689 0.223918348551
75.1666666667 1.09952867031 -0.32709184289 2.46294530371e-06 -3.31918477059e-06 -1.09935462475 1.64420866966 -4.58452033997 -0.812390804291
75.2208333333 0.635756313801 -0.900668621063 1.11219096652e-05 -6.51245159133e-07 0.0525661557913 -1.15135729313 0.241206943989 -1.05075991154
75.275 -0.0487102754414 -1.05099201202 -5.5452601373e-06 -6.61664989821e-06 0.128041088581 0.595115661621 0.466081351042 0.348644912243
75.3291666667 -0.645154118538 -0.780603885651 1.64125435731e-06 4.54896644442e-06 0.416764885187 -0.151846647263 0.351854473352 -0.0020996008534
75.3833333333 -0.95598167181 -0.244266450405 1.5562194676e-05 4.0769118641e-06 -0.361053347588 0.252806544304 0.26471722126 -0.283596307039
75.4375 -0.906680464745 0.359599083662 9.76752744464e-07 -6.28524139756e-06 -0.305452466011 1.67990899086 0.295427471399 -0.0718469470739
75.4916666667 -0.516920804977 0.824320852757 1.50874427618e-06 -2.48755486609e-06 0.399676024914 0.798425853252 -0.618155121803 0.483624011278
75.5458333333 0.0718421638012 0.998019516468 7.15471060175e-08 9.79576361715e-06 -0.763508975506 0.433859229088 0.277049213648 1.04481172562
75.6 0.697738945484 0.751402080059 3.48219998614e-07 4.68065127279e-06 -0.0346965156496 -0.927756786346 0.57404500246 0.315873354673
75.6541666667 1.03029716015 0.158872440457 9.46599902818e-06 6.76879926687e-06 -0.14407491684 0.0386178605258 0.333697110415 0.182923227549
75.7083333333 0.91558945179 -0.501790106297 -4.86974022351e-06 -2.63300398728e-06 1.28224730492 1.19552898407 1.7851177454 0.41007104516
75.7625 0.418300688267 -0.969299674034 -1.04126902443e-05 6.67222639095e-06 -0.279800593853 -0.382376790047 -1.20747303963 -0.368402540684
75.8166666667 -0.258780926466 -1.00178599358 9.36788728723e-06 1.13280748337e-05 -0.00427985424176 0.477115273476 0.474731773138 0.437642663717
75.8708333333 -0.805610597134 -0.636474013329 3.99608052248e-06 -8.84970359039e-06 -0.318069577217 0.241436317563 -0.683391571045 -0.0485049039125
75.925 -0.993849098682 -0.0384735949337 -5.21650645169e-06 -9.97636834654e-06 0.306129842997 -1.06905519962 -2.27738285065 1.18862915039
75.9791666667 -0.817832827568 0.495022177696 -1.28056299218e-05 -5.36086554348e-06 -1.40465009212 -0.988068282604 -1.49785447121 1.60055840015
76.0333333333 -0.406987279654 0.90957647562 4.81527331431e-06 -5.4702873058e-06 0.283379912376 -0.72554987669 -0.104542061687 0.502771258354
76.0875 0.227409034967 0.989700555801 5.05716252519e-06 -2.21583877646e-06 0.541032731533 -0.619495987892 0.117361478508 -0.55493324995
76.1416666667 0.793966174126 0.661107778549 6.71617681292e-06 -5.24766392118e-06 0.177403569221 -0.131606757641 0.0413063652813 -0.501725137234
76.1958333333 1.02775752544 0.0420383438468 -7.4178497016e-06 -1.07098703666e-05 0.0835093781352 -0.141438812017 0.574711859226 -0.493531495333
76.25 0.836752295494 -0.553143680096 -1.45414196595e-05 4.64484446638e-06 -0.0369671843946 0.393219679594 -0.125812441111 0.218572080135
76.3041666667 0.318394839764 -0.949154019356 2.12510087749e-07 9.43509894569e-06 0.276447951794 -0.210496723652 0.341217190027 -0.291614413261
76.3583333333 -0.324483066797 -0.918425619602 1.193020762e-05 -4.53564069858e-07 0.294365882874 -0.120117761195 0.234105944633 -0.260205179453
76.4125 -0.780813634396 -0.526789307594 -3.43156534655e-06 -7.85653810453e-06 0.089118398726 0.207847610116 -0.0724856108427 0.0321489423513
76.4666666667 -0.941439986229 0.0306828599423 -1.71905448951e-05 5.37128426004e-06 0.554350316525 0.169160231948 -0.157161697745 0.291625499725
76.5208333333 -0.747097551823 0.555779337883 3.03032337001e-08 1.84627951967e-05 -0.942184269428 -0.468630224466 0.509453594685 -0.310657769442
76.575 -0.272085726261 0.905645906925 7.56937606639e-06 -9.89602199297e-07 1.26498734951 -0.237564533949 1.1461224556 -0.451051831245
76.6291666667 0.311917752028 0.886339128017 2.74355534202e-06 -1.04474283944e-05 -1.06697034836 1.33465600014 -0.681782960892 0.570931136608
76.6833333333 0.773950517178 0.539422631264 -2.53403698025e-07 6.22141413942e-08 -0.854160189629 0.167806759477 0.561671078205 -0.826273739338
76.7375 0.941691100597 -0.0160503964871 -8.07214746601e-06 1.00600882433e-05 0.130948111415 -2.08307600021 -0.22235698998 -0.421960413456
76.7916666667 0.747991383076 -0.572998523712 3.59519845006e-06 3.10346649712e-06 0.718809008598 -0.162148877978 1.08045232296 -0.187433332205
76.8458333333 0.25669926405 -0.937887847424 1.17555391626e-05 9.87214025372e-06 0.7740265131 -0.440969407558 -0.511122763157 -0.991614937782
76.9 -0.338358968496 -0.888720750809 7.82588358561e-06 -2.69987276624e-06 -0.0344580933452 -0.606229007244 0.124019771814 -0.27857992053
76.9541666667 -0.797996580601 -0.500098586082 -2.01619041036e-05 -6.6297743615e-06 0.0778044015169 -0.034392978996 0.22028811276 -0.519227385521
77.0083333333 -0.935829877853 0.0434308759868 1.01656050902e-05 2.66099486907e-05 0.463636249304 0.144935429096 0.324630945921 0.266898751259
77.0625 -0.74000364542 0.577592492104 3.30719717567e-06 -8.61966782395e-06 0.202369078994 -0.295052140951 -0.1756927073 -0.157428726554
77.1166666667 -0.275670319796 0.928157567978 8.93746437214e-06 -8.13847964309e-06 1.06610846519 -0.35922434926 -0.145832642913 -0.42533493042
77.1708333333 0.312775403261 0.919027209282 9.35821844905e-06 5.84153724503e-07 2.86095690727 -2.45748281479 1.58986985683 -1.79014003277
77.225 0.799854755402 0.559842705727 -1.05983626781e-05 -6.38933443042e-06 0.123073853552 0.186803564429 2.73178577423 0.304649561644
77.2791666667 0.945716559887 -0.0323517583311 5.19300465385e-06 7.35478988645e-06 -0.0325880795717 0.646008193493 -0.585552990437 0.0888943448663
77.3333333333 0.735136449337 -0.567065358162 2.07607490665e-06 -4.78722358821e-06 0.50087338686 -0.723220586777 0.189354464412 0.589041292667
77.3875 0.273956239223 -0.864818990231 -1.61533279197e-07 -5.1778301895e-06 -0.0337416864932 -0.0380716845393 0.88548719883 0.421100825071
77.4416666667 -0.261827617884 -0.864867568016 -5.38288441021e-06 4.22825769419e-06 0.381773114204 -0.0903823524714 0.227563753724 0.560547947884
77.4958333333 -0.703851044178 -0.544200599194 -8.93124706636e-07 5.7887937146e-06 -0.612504303455 0.163598582149 -2.62024474144 1.41978991032
77.55 -0.885770261288 -0.0553218908608 1.06054994831e-05 2.77734443443e-06 -0.327404588461 0.35482314229 -0.181683212519 -0.952125608921
77.6041666667 -0.762771427631 0.459936380386 7.8635648606e-06 4.51183012729e-07 -0.138285964727 0.472029358149 -0.536803126335 0.733505368233
77.6583333333 -0.356576830149 0.832335948944 -5.0172485544e-07 -1.0252064385e-05 0.150750041008 0.00501291453838 0.814127624035 -1.75299596786
77.7125 0.20428019762 0.907519876957 -6.19298998572e-06 -1.05122589957e-05 0.228951007128 -0.774109244347 -0.829895675182 -0.113022893667
77.7666666667 0.71546214819 0.641102731228 2.16269242514e-07 -1.32243967528e-05 0.130753651261 0.100365035236 0.791170358658 0.523085713387
77.8208333333 0.962775170803 0.0771951377392 6.13641532254e-06 -1.72959630618e-06 -0.195007741451 -0.866573691368 -0.247741609812 0.999623835087
77.875 0.819581985474 -0.523687005043 -1.04635057596e-06 8.94895038073e-06 0.814072906971 -0.0332273356616 0.131089255214 0.399354070425
77.9291666667 0.340028315783 -0.914379775524 3.45762646248e-06 -9.1692683668e-08 0.858512222767 0.308377295732 1.03506839275 0.24774029851
77.9833333333 -0.252602756023 -0.926059961319 -3.97027952204e-06 -4.14725718656e-06 -0.0380175150931 -0.364559531212 -0.169929429889 0.19010618329
78.0375 -0.732158541679 -0.594536066055 -1.22314431792e-05 7.34851028028e-06 0.642904996872 0.649861633778 1.3205845356 0.159658223391
78.0916666667 -0.935858488083 -0.0584199391305 1.18812124583e-06 4.9030268201e-07 -0.666144788265 0.670131385326 -0.262129962444 0.252318948507
78.1458333333 -0.8047773242 0.471992790699 -4.85614327772e-06 -2.37454673879e-06 1.27428305149 0.598387658596 0.550617277622 1.04682588577
78.2 -0.404460668564 0.861989736557 8.56963924889e-06 -2.69632073469e-06 -0.141470909119 0.471371471882 -0.0437294431031 -0.687871754169
78.2541666667 0.174277901649 0.954999864101 -2.64105619863e-06 -4.87554007123e-06 0.673001408577 0.229489892721 0.557453036308 -1.0452132225
78.3083333333 0.732516169548 0.693657934666 -3.64477909898e-06 -1.31192143726e-06 0.158684208989 0.308967292309 1.42569184303 1.23582100868
78.3625 1.01359713078 0.101086094975 5.94157791056e-06 5.32000058229e-06 0.604044079781 -0.612250983715 0.0386327467859 -0.171897470951
78.4166666667 0.864317059517 -0.491204530001 5.49226433577e-06 1.7122497411e-06 0.803817272186 -0.683309853077 0.174191862345 -1.30465042591
78.4708333333 0.43956014514 -0.913797616959 9.86351642496e-06 -1.47241662489e-05 0.0095667084679 0.134166911244 0.388065904379 0.0385422706604
78.525 -0.206125169992 -1.02220773697 -7.71336817706e-06 2.7952196433e-06 -0.903792917728 0.566766321659 -0.583425700665 -0.246603757143
78.5791666667 -0.796099424362 -0.675330519676 5.67858478462e-06 1.01036966953e-05 0.284372508526 0.34427601099 0.0716132819653 -0.149999633431
78.6333333333 -1.02864336967 -0.0336126126349 6.35206606603e-06 -4.71937073598e-06 0.0902314037085 -2.20866155624 3.71258234978 0.481901019812
78.6875 -0.797577857971 0.56255197525 -2.94568894788e-06 1.73901003109e-06 0.33729493618 0.484118461609 0.470093429089 0.211499795318
78.7416666667 -0.31625264883 0.878263831139 1.62344633736e-06 7.10471658749e-06 -0.180823385715 -0.185856699944 0.371348589659 0.481390237808
78.7958333333 0.231827452779 0.892392158508 8.93428568816e-06 -1.25849726373e-06 -0.164990365505 -0.39677760005 -0.159635946155 1.06143605709
78.85 0.68450242281 0.624189317226 -7.02657189322e-06 -1.36238886626e-05 -0.204668685794 -0.428792327642 -0.158945977688 -0.122777625918
78.9041666667 0.950959205627 0.120835848153 -3.46812703356e-06 7.19293439033e-06 2.59588956833 -2.41206765175 2.7691116333 4.72425746918
78.9583333333 0.866078913212 -0.444870740175 4.83285657538e-06 4.59228112959e-06 3.8732008934 -0.0349395945668 -0.578428149223 -0.227248191833
79.0125 0.467276781797 -0.902327239513 7.14397128831e-06 -9.39137044043e-06 1.04923915863 0.131864890456 0.731495082378 -0.506489872932
79.0666666667 -0.174454271793 -1.03432047367 1.23696818264e-05 -6.60959995002e-06 0.386396288872 0.0623056814075 0.356979221106 0.770020842552
79.1208333333 -0.759191453457 -0.712902843952 -4.30917452832e-06 1.05192577848e-06 -0.52705848217 0.43813675642 0.146896913648 0.320789813995
79.175 -0.997288167477 -0.128056243062 -4.38774986833e-06 7.51951620259e-06 0.213110357523 -0.55201625824 0.765367805958 -0.316248089075
79.2291666667 -0.861908137798 0.466554522514 -2.92285562864e-06 3.975693744e-06 0.546985268593 -1.88232755661 -0.352463126183 -1.54852735996
79.2833333333 -0.439437836409 0.855165362358 6.447042324e-06 -2.93761240755e-06 -0.0591368041933 0.14158962667 -0.0840964019299 0.145434498787
79.3375 0.08723654598 0.967482566833 7.03415616954e-06 1.10517858047e-05 -0.264218717813 -0.220499873161 -0.00172682572156 0.166169136763
79.3916666667 0.711502015591 0.727650225163 2.96699795399e-06 2.55622694567e-07 -0.0779948607087 -0.330313563347 0.120321795344 -0.383956670761
79.4458333333 0.965591669083 0.189906135201 -1.70044177139e-06 -1.77849215106e-05 0.0953026264906 -0.396659642458 -0.831223428249 0.0107932547107
79.5 0.893876373768 -0.344438135624 -1.56130790856e-05 -3.4213642266e-06 0.681729376316 -0.49609747529 -0.468863755465 -0.0851273462176
79.5541666667 0.60928362608 -0.761386036873 -5.31624982614e-06 1.67944472196e-05 -1.28277993202 -5.37853574753 1.15170133114 0.382658213377
79.6083333333 0.0670561045408 -1.01999735832 1.46889642565e-05 9.41738562688e-06 0.23937214911 -0.0983238965273 0.36997333169 0.0314309373498
79.6625 -0.564182698727 -0.876974582672 5.8490977608e-06 -6.83602547724e-06 2.36166238785 0.648230433464 -0.557453930378 -1.85217916965
79.7166666667 -0.966532468796 -0.365610301495 -7.20756702322e-07 -1.00551305877e-05 0.672273099422 -0.0433476865292 -0.0359406434 0.39132258296
79.7708333333 -0.980800688267 0.277950018644 7.41574740459e-06 3.17061039823e-06 -0.252676457167 1.67553675175 1.34028255939 -1.95249736309
79.825 -0.628896296024 0.767957091331 6.76683293932e-06 5.03554747411e-06 0.199768364429 -0.262898415327 -0.729558348656 0.754303336143
79.8791666667 -0.084787517786 0.968065679073 3.66774156646e-06 1.26417016872e-05 -0.479662299156 0.75686955452 -0.250125199556 0.406536877155
79.9333333333 0.451379746199 0.856847763062 5.63912635698e-06 3.88434227716e-06 0.101550377905 -0.398166924715 0.00277575990185 0.169906333089
79.9875 0.879767179489 0.460819810629 6.93078800396e-06 -7.10878157406e-06 0.405673384666 -0.236139208078 -0.200648143888 -0.20827151835
80.0416666667 0.992566645145 -0.191013395786 -1.24531406982e-05 -4.72774308946e-06 1.91062295437 2.2261197567 1.25810873508 0.618270635605
80.0958333333 0.73440861702 -0.688072681427 -3.88003263652e-06 -4.52144888641e-07 -0.643088281155 -1.42520809174 0.9094222188 0.0339452810585
80.15 0.247634336352 -0.95673006773 -1.07288849449e-06 1.83421743714e-05 -0.785926043987 0.90911090374 -0.898549377918 -0.0950994119048
80.2041666667 -0.277965188026 -0.94154715538 6.24852827968e-06 7.26362395653e-06 -1.42921721935 -0.309271275997 -0.47097286582 1.49507892132
80.2583333333 -0.802708804607 -0.625042915344 1.08457634269e-05 -5.78546223551e-06 -0.0775903016329 -0.132653832436 -0.673633694649 -0.926763117313
80.3125 -1.02374446392 -0.035773832351 -6.42570375931e-06 -1.21328066598e-05 -0.526571035385 0.231177017093 0.453025370836 0.0903538614511
80.3666666667 -0.824256539345 0.557487547398 -5.32178000867e-06 -1.45229853388e-06 2.07508158684 0.22048638761 -0.336854338646 -0.965809822083
80.4208333333 -0.356358110905 0.871744930744 -6.62985303279e-06 5.96834888711e-06 1.07217741013 -0.354639738798 -0.0509514063597 -2.18523025513
80.475 0.178055107594 0.929750025272 4.5148440222e-06 -8.85459212441e-06 0.171761721373 0.148091584444 0.168688207865 -0.0194254294038
80.5291666667 0.652063846588 0.656226396561 7.67802703194e-06 1.99917849386e-06 -2.62692332268 -0.609510958195 -1.01005125046 3.45641469955
80.5833333333 0.908480405807 0.175325185061 -9.59227872954e-06 -1.0909858247e-05 0.30495133996 -0.00213354849257 0.46463611722 -0.0789088979363
80.6375 0.857621729374 -0.353276580572 -9.83807876764e-06 -4.89366402689e-06 0.28942835331 -0.274489283562 0.529252707958 0.0437988489866
80.6916666667 0.548457682133 -0.779434561729 -8.01953683549e-06 1.32573086375e-05 -0.519616425037 0.174291819334 0.232533112168 -0.516828000546
80.7458333333 3.82796206395e-05 -0.977435588837 5.41764893569e-06 1.06243560367e-05 0.669793903828 0.111416846514 1.03979218006 0.327750623226
80.8 -0.51883071661 -0.854675114155 1.76685825863e-05 -1.31955939651e-05 0.3356295228 0.065556190908 -1.23321187496 0.593234717846
80.8541666667 -0.956884145737 -0.404340088367 -1.11449007818e-05 -3.12616884912e-06 0.826593995094 0.0247035734355 -0.399476140738 0.582885682583
80.9083333333 -1.03415846825 0.254251629114 -3.01838531414e-06 -6.83831274273e-07 -0.0855027735233 -0.86361771822 0.452471554279 -0.388554662466
80.9625 -0.659557104111 0.799943089485 6.47874321658e-06 5.89881028645e-06 3.41773724556 -2.53322291374 1.87020552158 -0.564408481121
81.0166666667 -0.0789214074612 0.994250893593 -6.05265427112e-07 -1.93666082282e-07 0.355972349644 -0.475282400846 0.453390210867 -0.0545660704374
81.0708333333 0.47591099143 0.837895452976 -7.26811367713e-06 2.13833027374e-06 -0.171072825789 0.638502120972 -0.240563258529 0.584733128548
81.125 0.85158842802 0.387886971235 -2.84421162178e-06 3.44425302501e-06 1.24516665936 -0.284742057323 1.91660189629 -1.18197762966
81.1791666667 0.922101616859 -0.087031468749 -4.37374819739e-06 -7.15434771337e-06 0.0164020638913 0.289993584156 0.30936190486 0.628823518753
81.2333333333 0.757478892803 -0.554474473 -9.13962139748e-06 -1.70642886133e-06 0.0628598555923 0.198075130582 0.436825186014 0.00190459867008
81.2875 0.351079404354 -0.890414953232 -3.27900670527e-06 9.88382225842e-07 0.168568581343 0.296134799719 -0.235467359424 -0.466512352228
81.3416666667 -0.145911186934 -0.948232829571 -3.72862041331e-06 8.50157903187e-06 0.462256789207 0.536428630352 -0.302859067917 0.340316385031
81.3958333333 -0.693582773209 -0.773749768734 -1.04748924059e-05 -1.10589951419e-06 0.230711966753 0.901161789894 -1.00036549568 -0.231375589967
81.45 -1.08072328568 -0.25908485055 -6.51996697343e-06 -2.53575490206e-06 -0.914150834084 -0.427889972925 -0.931000828743 -0.642247259617
81.5041666667 -1.04604041576 0.483973175287 -6.78833089296e-07 2.81762163468e-06 0.675178825855 0.432120889425 0.899870574474 0.508112967014
81.5583333333 -0.518661022186 0.981924235821 -4.48647188023e-06 6.65980132908e-06 0.114929653704 -1.08376252651 0.656872808933 0.0243056789041
81.6125 0.121396735311 1.02551102638 -3.53954362708e-07 6.53078905088e-06 1.14212357998 -0.49494343996 1.17556929588 0.398593604565
81.6666666667 0.61214029789 0.785240709782 2.43321119342e-06 -9.94171273305e-07 0.42722967267 -0.0998812541366 0.160782381892 0.590958952904
81.7208333333 0.950626909733 0.325269728899 2.5748133794e-06 -1.65933715834e-06 -0.0805283933878 -0.236973121762 0.322864234447 -0.113039799035
81.775 0.987529575825 -0.247068598866 8.37678442167e-08 -6.43733574179e-06 0.505696296692 0.586870372295 0.0695485174656 0.13390865922
81.8291666667 0.706461906433 -0.701822400093 -7.14391319434e-07 1.04954997369e-05 -1.62524712086 -0.0906189009547 -2.59784603119 1.09197533131
81.8833333333 0.241537809372 -0.965445637703 4.92935896546e-06 8.72733289725e-06 0.391315847635 2.94339418411 4.13616037369 -0.987411141396
81.9375 -0.343858778477 -0.95044863224 1.15595339594e-05 -1.90802120414e-06 -0.162820443511 1.946849823 1.57585263252 0.724082350731
81.9916666667 -0.844336986542 -0.611926198006 7.37285631658e-07 -3.60512262887e-06 -0.600798606873 0.344761222601 -0.795701026917 -0.371784478426
82.0458333333 -1.08675146103 -0.0113406768069 -1.07455298348e-06 -2.2505043944e-06 0.25148576498 1.75113594532 -0.0845155715942 1.12938630581
82.1 -0.898367643356 0.616784095764 2.01779471354e-06 1.12802345029e-05 -0.0898160114884 -0.41836604476 1.17584824562 0.468406051397
82.1541666667 -0.359419852495 1.03581392765 2.7275277148e-07 -5.50488675799e-06 0.720124423504 0.624457001686 2.21444964409 -2.31527209282
82.2083333333 0.31558161974 1.0432536602 2.9767684282e-06 -3.97506937588e-06 -0.580384910107 -0.454327523708 -0.298141181469 -0.5326577425
82.2625 0.832345426083 0.654387712479 -3.53233031092e-06 -8.34555692109e-07 2.44953513145 4.63067340851 4.03022480011 4.60749721527
82.3166666667 1.02316617966 0.0642602816224 -1.87439070487e-06 1.34502238325e-06 1.4107530117 0.419933229685 0.816029131413 -0.684263706207
82.3708333333 0.866957128048 -0.508301615715 2.33780224335e-06 6.84540827933e-06 0.278120458126 -0.411989420652 -0.639196157455 0.517027318478
82.425 0.443973660469 -0.870410621166 7.04859758116e-06 3.84621642979e-07 -0.194803982973 0.584759652615 -0.740970671177 -0.0328524857759
82.4791666667 -0.0900962054729 -0.97118729353 9.5700734164e-06 -9.04279841052e-06 0.755733013153 0.236040577292 0.689955532551 1.06863319874
82.5333333333 -0.619380295277 -0.788519442081 -2.76235778074e-06 -6.96226879882e-06 1.52698433399 0.0850194618106 0.438555270433 -0.0821482166648
82.5875 -0.987296879292 -0.337996602058 -7.05953925717e-06 7.35993535272e-06 0.442365169525 0.943355441093 -1.5033043623 -0.364723682404
