!Created with skrf (http://scikit-rf.org).
# GHz S RI R 50.0 
!freq ReS11 ImS11 ReS21 ImS21 ReS12 ImS12 ReS22 ImS22
75.0041666667 -0.0295012593269 0.015474894084 -0.0766836851835 -0.827481150627 -0.336670607328 0.141133129597 -0.274979650974 0.282349616289
75.0583333333 -0.0193454492837 0.0272666569799 -0.808329284191 -0.162694975734 -0.182712391019 -0.305734962225 0.115562647581 0.631077885628
75.1125 -0.0059911897406 0.0309133082628 -0.436688780785 0.664731860161 -1.400796175 0.130285173655 -0.427675873041 -0.00164290855173
75.1666666667 0.00579886930063 0.0286375712603 0.292786717415 0.717794775963 0.0541586577892 0.959503650665 0.132274746895 0.44101691246
75.2208333333 0.0133199589327 0.023113720119 0.742978990078 0.173774316907 0.825928330421 -0.268749445677 0.572825193405 -0.0953825414181
75.275 0.0177925359458 0.0173426344991 0.399769067764 -0.640322744846 0.860235452652 -1.70398819447 1.62849199772 0.413513749838
75.3291666667 0.0216758958995 0.0123682292178 -0.53533744812 -0.507568717003 0.651433885098 -0.125605851412 0.284728705883 0.249902099371
75.3833333333 0.0255542565137 0.00574928009883 -0.664560317993 0.284271091223 -0.391581952572 -0.357090473175 -0.242652863264 0.202757582068
75.4375 0.0270781479776 -0.00320535223 -0.148679971695 0.687464118004 -2.17669582367 -1.2614210844 -1.55123472214 -2.46020531654
75.4916666667 0.0246859788895 -0.0127713792026 0.530206918716 0.431225270033 -0.664719462395 -0.121586248279 -0.357914149761 -0.417323440313
75.5458333333 0.0188977215439 -0.0210759527981 0.535916507244 -0.437381982803 0.493517905474 -0.800555348396 -0.0233510956168 -0.440163373947
75.6 0.00961058028042 -0.0264787580818 -0.316747993231 -0.601521730423 0.0162136945873 0.0949688628316 -0.173482432961 0.0303910579532
75.6541666667 -0.000579589803237 -0.0280417911708 -0.652153074741 -0.0529327876866 -2.6230866909 -0.135220482945 0.469817996025 -0.182089865208
75.7083333333 -0.010253761895 -0.0257604625076 -0.46810773015 0.464445918798 0.0828697904944 0.126679062843 0.0817094817758 0.113406777382
75.7625 -0.0191330295056 -0.0202932953835 0.222280457616 0.624260783195 -0.374815553427 0.756051957607 0.259366214275 0.0755101963878
75.8166666667 -0.0246955752373 -0.0108894174919 0.654181420803 -0.0881384462118 0.047953825444 -1.30226898193 0.140835702419 -0.738887071609
75.8708333333 -0.0254036337137 -0.000235767714912 0.164259880781 -0.637238919735 0.907464921474 0.117246426642 0.36933991313 0.0678646340966
75.925 -0.0210979674011 0.00789768714458 -0.423060208559 -0.515341460705 0.215062871575 0.398148983717 -0.250866085291 -0.745122015476
75.9791666667 -0.0152677558362 0.0112993167713 -0.642799139023 0.0863588601351 -1.83271241188 1.61085343361 -0.358800172806 2.30851578712
76.0333333333 -0.0116271553561 0.0129019245505 -0.116028770804 0.633176207542 0.846937358379 0.749565064907 -0.898574113846 0.572121024132
76.0875 -0.00923925079405 0.0144980344921 0.567427992821 0.30735078454 0.879737615585 0.703009843826 0.480486214161 -0.079670406878
76.1416666667 -0.00686817243695 0.0178883690387 0.566556155682 -0.314026772976 -0.693203985691 0.347426146269 -1.15235984325 0.456942617893
76.1958333333 -0.00164892931934 0.0218527633697 0.103731617332 -0.636287152767 0.339167237282 0.332806587219 -0.811181545258 0.830995559692
76.25 0.0066074822098 0.0236759390682 -0.526256501675 -0.394214004278 0.866913676262 -0.160625487566 1.04717099667 1.21965432167
76.3041666667 0.0180107988417 0.0202641412616 -0.530059933662 0.384976118803 1.19077217579 -0.620765268803 -0.514914929867 0.229377225041
76.3583333333 0.0256607271731 0.00954622589052 0.142492473125 0.641122341156 0.848607301712 -0.693045794964 -0.18510350585 -1.66927134991
76.4125 0.0254079438746 -0.00290459441021 0.596213459969 0.239143356681 -0.291236847639 0.86674875021 -0.128275156021 -0.423436135054
76.4666666667 0.0193192195147 -0.0117615927011 0.518479704857 -0.382947653532 -0.916135191917 1.31032156944 -0.188678577542 1.22633349895
76.5208333333 0.0115498499945 -0.0142370257527 -0.18508464098 -0.61629152298 1.10747230053 -1.35566556454 1.0241985321 0.00312374019995
76.575 0.00641549006104 -0.0134612387046 -0.640046596527 0.019083108753 -0.00478584552184 -0.836930692196 -1.40258157253 0.48789703846
76.6291666667 0.00483577139676 -0.0125379757956 -0.218572363257 0.591685295105 -0.169807761908 -0.601297259331 1.08946061134 -0.277168959379
76.6833333333 0.00384991616011 -0.0145882079378 0.405491679907 0.475634872913 0.68336814642 -0.590336740017 -0.631382584572 0.340197354555
76.7375 -0.000331621908117 -0.0180382281542 0.621725261211 -0.147727265954 -0.270205229521 -0.0416950620711 0.561066091061 0.102016836405
76.7916666667 -0.00856698211282 -0.018882131204 0.0886976197362 -0.639033138752 -0.418526262045 -0.920609772205 -1.07858264446 -0.783862829208
76.8458333333 -0.0181029234082 -0.014242538251 -0.555938661098 -0.313905447721 0.274806439877 -0.0578611753881 0.507729172707 0.216546803713
76.9 -0.0222119390965 -0.00364779843949 -0.505505144596 0.368139833212 -4.50014257431 1.03029572964 -2.7606356144 4.59214496613
76.9541666667 -0.0190846249461 0.00739899696782 0.0974345654249 0.606875002384 0.317228347063 -1.33338856697 -0.933322548866 -0.0748792812228
77.0083333333 -0.011241578497 0.0124183176085 0.58307915926 0.172948211432 -0.129987582564 -1.06373631954 1.52009379864 -0.180795744061
77.0625 -0.0041732583195 0.0114350877702 0.390091627836 -0.443975716829 -0.418107897043 -0.0866444259882 -0.0151077602059 0.250544667244
77.1166666667 -0.00160721410066 0.00761690922081 0.601332426071 0.0229722503573 0.91657859087 -1.09554243088 0.238458052278 0.298913061619
77.1708333333 -0.0042650164105 0.00654948782176 0.356403619051 -0.490268081427 -0.315705895424 0.45377984643 -0.315925508738 -0.564342439175
77.225 -0.00560985226184 0.0110445972532 -0.2261531353 -0.544579744339 0.309658527374 -0.203731298447 -0.303877055645 -0.207639798522
77.2791666667 -0.000793301675003 0.0171135235578 -0.587210118771 -0.0456175245345 0.0638066083193 -0.0256768986583 -0.0650833174586 -0.686847925186
77.3333333333 0.00954422727227 0.0185677111149 -0.281566798687 0.517138957977 0.106108084321 0.0698199048638 0.319141328335 -0.0884591713548
77.3875 0.0195161495358 0.0118582844734 0.306642830372 0.495316416025 -0.808774232864 0.0241563767195 0.00230933190323 0.436523348093
77.4416666667 0.0233848001808 -0.000802570488304 0.592402517796 0.0111318165436 0.260489106178 1.22178471088 0.38647004962 0.386360228062
77.4958333333 0.0169023368508 -0.0132033079863 0.297726720572 -0.50287270546 -0.464606434107 0.303470641375 0.82136708498 -0.360070645809
77.55 0.00475562782958 -0.0171299166977 -0.332555174828 -0.487941175699 1.68906617165 -0.141023844481 -0.0990497991443 0.380528658628
77.6041666667 -0.00512169674039 -0.0114217754453 -0.591558396816 0.0858539566398 0.45975741744 -0.559768021107 0.45546194911 -0.114350996912
77.6583333333 -0.00635617179796 -0.00152910687029 -0.260430812836 0.538730442524 0.179002031684 0.56487005949 -0.741706550121 0.87891960144
77.7125 0.00107396196108 0.00343741336837 0.273999482393 0.52057403326 0.592196345329 0.114179633558 0.776648938656 -0.118346184492
77.7666666667 0.00903260428458 -0.00133617897518 0.59193199873 0.0456363968551 1.21193134785 -0.490031182766 -1.19968664646 0.42894372344
77.8208333333 0.00857455469668 -0.0121376523748 0.319391816854 -0.501730442047 0.962768793106 -0.557878136635 0.573664665222 -0.546070694923
77.875 -0.00185001688078 -0.0192470699549 -0.2390807271 -0.556429088116 0.650079548359 0.42366284132 0.433006614447 -0.874199450016
77.9291666667 -0.0155776990578 -0.0156440306455 -0.582084298134 -0.174468010664 0.396644175053 -1.05319809914 0.479000210762 0.0570207424462
77.9833333333 -0.0221020169556 -0.00301396450959 -0.489160984755 0.350793927908 0.370322018862 -0.0345424041152 0.235636264086 0.671012401581
78.0375 -0.017993895337 0.0102863162756 0.0512097328901 0.605210542679 -0.214864060283 0.345626503229 0.307791620493 0.108166106045
78.0916666667 -0.0066573866643 0.016151368618 0.518317759037 0.312529861927 -0.315833091736 0.469766229391 0.490630477667 0.00395442638546
78.1458333333 0.00303266756237 0.0122187808156 0.590214908123 -0.205199673772 0.323718726635 -1.57505238056 0.0755013376474 0.549568414688
78.2 0.00531047023833 0.00438474770635 0.172553494573 -0.614590883255 -0.077597618103 -0.408964186907 0.364304423332 0.346042364836
78.2541666667 0.000509713659994 8.9006665803e-05 -0.469436585903 -0.420825630426 -0.594389379025 1.17350578308 0.60968375206 2.12414574623
78.3083333333 -0.00451457826421 0.00358102144673 -0.603393733501 0.214196458459 0.816123485565 0.194118484855 0.395126700401 0.666678786278
78.3625 -0.00263301795349 0.0106009868905 -0.193788900971 0.617783784866 0.201372995973 -0.37220042944 0.483500421047 0.169006928802
78.4166666667 0.00505037046969 0.0133105339482 0.330306738615 0.555916011333 0.371684342623 -0.35006916523 -1.36945164204 -0.0700567513704
78.4708333333 0.0137215154245 0.00948723033071 0.671864449978 0.00204477785155 0.311709135771 0.320114850998 0.206293433905 0.159454345703
78.525 0.0176908802241 -0.000743864569813 0.253982484341 -0.649427950382 0.612018823624 -0.209461867809 -0.0256839059293 0.387774497271
78.5791666667 0.0126596875489 -0.0107669755816 -0.461854428053 -0.514600217342 -0.350336462259 -0.501690208912 1.00868880749 -0.223762392998
78.6333333333 0.00244098063558 -0.0137635152787 -0.691071212292 0.0439905822277 0.117603115737 0.0240129083395 0.788064002991 -0.180506005883
78.6875 -0.00485277362168 -0.00768013671041 -0.333710581064 0.561163663864 0.0565689094365 0.486417233944 -2.34245014191 1.16784918308
78.7416666667 -0.00333924172446 -0.00025216571521 0.350648194551 0.547849476337 0.0398951396346 0.362445324659 -0.0431471802294 -0.055697593838
78.7958333333 0.00336973392405 0.00110809260514 0.644085049629 -0.142441302538 -0.146530523896 0.222228810191 -0.0699769929051 -0.679410099983
78.85 0.00792991742492 -0.00492161279544 0.207855388522 -0.62426763773 0.0068088020198 -0.464511692524 0.201064631343 -0.00424256315455
78.9041666667 0.00502067850903 -0.0140180103481 -0.374779939651 -0.559272110462 1.0801653862 -2.13314604759 2.55076599121 -1.55604565144
78.9583333333 -0.00566612742841 -0.0185302179307 -0.678029239178 0.01979717426 -0.18843139708 -0.605531096458 -0.479912519455 -0.0267536193132
79.0125 -0.0183545090258 -0.0134002072737 -0.293426930904 0.603998243809 1.61503374577 -2.95843267441 2.33140230179 -0.680665373802
79.0666666667 -0.0244229640812 0.000408440711908 0.354197800159 0.570644021034 -0.155886247754 -0.979349315166 -0.824701249599 -0.823217451572
79.1208333333 -0.018665086478 0.0148476287723 0.665188372135 0.0870273411274 1.01719522476 -0.0199742168188 0.712141215801 -0.305379658937
79.175 -0.00528751919046 0.0203557685018 0.471853554249 -0.483397305012 -0.238580003381 -0.361702382565 -0.145374327898 -0.49616715312
79.2291666667 0.00700414599851 0.0156034752727 -0.152711614966 -0.654185116291 -0.0557431839406 0.371542006731 0.736141443253 -0.503971397877
79.2833333333 0.0110516669229 0.00543557992205 -0.617670357227 -0.243976727128 0.255962580442 0.0819525420666 0.457899987698 0.386650800705
79.3375 0.00694444635883 -0.00273923482746 -0.595770835876 0.339063078165 -0.0520689375699 0.344872534275 0.525574266911 -0.268582314253
79.3916666667 -0.00171645800583 -0.00372191681527 -0.0812337026 0.774012565613 0.0876680836082 -0.111689537764 -0.269587486982 0.272171854973
79.4458333333 -0.00567297125235 0.00336093292572 0.691306829453 0.351731806993 0.101801790297 -0.152629628778 0.246159747243 0.4956997931
79.5 -0.00201927614398 0.00999040808529 0.599651813507 -0.393628001213 -0.349362432957 0.463762640953 -0.187325894833 -0.156030133367
79.5541666667 0.0048954654485 0.0121925948188 0.0893004313111 -0.692152202129 0.260109782219 0.0328302457929 0.372837543488 -0.292190909386
79.6083333333 0.0126319117844 0.00871893297881 -0.479506760836 -0.515531718731 0.602203667164 0.432167112827 0.143515452743 -0.20596177876
79.6625 0.0161786340177 0.000659222656395 -0.70829898119 0.0882807970047 0.786271095276 -1.55829417706 0.384186714888 1.84175038338
79.7166666667 0.0136597752571 -0.00711309490725 -0.252551108599 0.672404825687 -0.515180110931 -0.403981089592 -0.00562553992495 0.708455979824
79.7708333333 0.0081943385303 -0.0113268056884 0.506607413292 0.508877158165 0.686128556728 0.331550061703 0.689735531807 0.311971455812
79.825 0.00303962547332 -0.0118659092113 0.678889334202 -0.230797961354 -0.392888247967 0.421173810959 -0.462673664093 -0.397230058908
79.8791666667 -0.000477325927932 -0.0107674347237 0.128833562136 -0.714291155338 -0.0655342787504 0.658413827419 0.295429587364 -0.312112361193
79.9333333333 -0.00262456363998 -0.00980961415917 -0.547157227993 -0.509488105774 0.00633940892294 -1.85469543934 -0.276731520891 -1.12270653248
79.9875 -0.00507904635742 -0.00916058663279 -0.72305315733 0.109918929636 -1.19545447826 -0.576647341251 0.345634162426 -1.51936101913
80.0416666667 -0.00851494167 -0.00725078163669 -0.329290360212 0.635417401791 -0.282648861408 -0.0174445975572 0.0156924817711 0.713520646095
80.0958333333 -0.0107105765492 -0.00419453298673 0.359077632427 0.594322681427 2.5300245285 -2.51580476761 0.654962480068 0.320804476738
80.15 -0.010973806493 -0.000136319780722 0.682108044624 0.0313533209264 0.543855786324 -0.0342165827751 0.261656701565 0.392032444477
80.2041666667 -0.00937536079437 0.00297440891154 0.450010836124 -0.514402151108 0.318923801184 0.600983977318 -1.60625433922 0.0740301087499
80.2583333333 -0.00698337284848 0.00535745546222 -0.201815336943 -0.646272182465 -0.268990784883 0.200199455023 0.955725669861 -0.446819722652
80.3125 -0.00408699875697 0.00575930112973 -0.700090289116 -0.0772203579545 -2.55304503441 0.356253087521 1.03764748573 -0.220431044698
80.3666666667 -0.00291153742 0.00459964433685 -0.412338018417 0.537364423275 -0.313053905964 -0.137998282909 0.075455032289 -0.454166531563
80.4208333333 -0.00369843794033 0.00445822859183 0.226817637682 0.640123009682 -0.130005761981 1.85875058174 0.0735294446349 0.603975236416
80.475 -0.00467866240069 0.00668429397047 0.651442706585 0.164383143187 1.43704140186 -0.352304071188 0.244490429759 -1.08765244484
80.5291666667 -0.00314132939093 0.0111240288243 0.39629560709 -0.54323631525 0.235174670815 -0.262717723846 -0.320410311222 0.294155776501
80.5833333333 0.00335694733076 0.0143838636577 -0.391540259123 -0.563470900059 -0.624822735786 -1.06585144997 -1.0337613821 1.64609193802
80.6375 0.010772369802 0.0121190696955 -0.658369123936 0.07601634413 0.633022129536 0.253382086754 -0.108488403261 0.00487031973898
80.6916666667 0.0158990900964 0.00616779457778 -0.343508630991 0.546824812889 -0.596557974815 1.22935068607 -0.748357832432 0.815005779266
80.7458333333 0.0167227480561 -0.00242594489828 0.271492809057 0.5854845047 0.381190210581 -0.347434043884 -0.215895518661 -0.067027553916
80.8 0.0132888974622 -0.00890426710248 0.662155508995 1.07848709376e-05 0.123128578067 0.990305125713 -0.38479757309 0.0269787926227
80.8541666667 0.00713897030801 -0.0131284035742 0.236064493656 -0.606291234493 0.50432485342 -0.039155356586 0.216281563044 0.371833533049
80.9083333333 1.1842926142e-05 -0.0122745679691 -0.39942073822 -0.531346857548 1.32477581501 0.730218827724 1.01233899593 0.159575596452
80.9625 -0.00344687164761 -0.00785312242806 -0.650604128838 -0.0238363835961 0.592793107033 0.382688969374 0.932602643967 -0.274982661009
81.0166666667 -0.00287998979911 -0.00453945295885 -0.394325345755 0.530320227146 0.14817507565 0.74464392662 -0.463311582804 0.357276707888
81.0708333333 -0.00093084119726 -0.00297719310038 0.287624120712 0.602730929852 -0.326353609562 -0.207982182503 0.473017185926 -0.506956875324
81.125 0.000328777445247 -0.00497682578862 0.676967740059 0.0546131283045 -5.5722193718 3.48186540604 -0.604797363281 1.59852063656
81.1791666667 -0.00127344101202 -0.00868475157768 0.431794732809 -0.532884061337 -0.23762524128 -2.04268407822 1.69976580143 1.27594411373
81.2333333333 -0.00563231529668 -0.00859735812992 -0.153007850051 -0.66264462471 0.358767658472 0.737980484962 -0.617089569569 0.507049560547
81.2875 -0.00988988392055 -0.00648869620636 -0.636635899544 -0.251210868359 0.153741583228 0.415288418531 -0.126797527075 -0.0939674004912
81.3416666667 -0.0140425758436 -0.00374328880571 0.455513000488 0.497409582138 1.0255947113 0.132031828165 1.0085362196 0.386352658272
81.3958333333 -0.0155555671081 0.00456645572558 0.667528510094 0.194998309016 -0.0377698764205 0.542545318604 0.434785038233 0.169170752168
81.45 -0.0108340550214 0.00894464738667 0.660000801086 -0.200900986791 -0.489012300968 0.169019937515 0.157652288675 0.10988432169
81.5041666667 -0.00613683881238 0.0108613912016 0.439591795206 -0.541856050491 -0.121728755534 0.19798861444 1.1873344183 0.143831223249
81.5583333333 -0.00178362207953 0.0130507871509 0.088659748435 -0.683326601982 0.0652520731091 0.696150362492 0.763254344463 0.64654314518
81.6125 0.00404518377036 0.0122833522037 -0.268255054951 -0.640774130821 1.0958417654 0.504275500774 -0.718706905842 -0.547450304031
81.6666666667 0.00635378947482 0.00938593503088 -0.578880727291 -0.42013001442 -0.635091543198 0.888508617878 -0.437068611383 0.128157585859
81.7208333333 0.00787654239684 0.00734337372705 -0.705783784389 -0.0708815529943 0.404459297657 0.496612340212 -0.20108628273 -0.0764790996909
81.775 0.0091858971864 0.00342790898867 -0.648471236229 0.314095765352 -0.42336332798 -1.77611815929 1.50755035877 -0.486931443214
81.8291666667 0.00841960590333 0.000187136349268 -0.390581250191 0.593532681465 -0.0316641107202 0.267754852772 -0.150072604418 0.670370042324
81.8833333333 0.00667737098411 -0.00218603038229 -0.023251036182 0.721139132977 -0.712971270084 1.0700776577 0.77054899931 0.260297566652
81.9375 0.00492859864607 -0.00136310816742 0.354037165642 0.619602560997 -0.144534751773 -0.378761291504 -0.617571055889 0.0710730180144
81.9916666667 0.00695032766089 -0.000800154637545 0.630763888359 0.343418926001 -0.276088058949 -0.0808154866099 0.336809635162 -0.333674520254
82.0458333333 0.00888921227306 -0.00385428592563 0.733907282352 -0.0603493414819 0.224551334977 0.0547044575214 0.827215075493 -0.0741110220551
82.1 0.00771379983053 -0.00688324356452 0.55773961544 -0.475460320711 0.0268665384501 0.781111180782 -0.227917462587 -0.274185270071
82.1541666667 0.00551592046395 -0.00851187296212 0.181759178638 -0.729806303978 0.0422118417919 0.321288645267 0.407209157944 0.273677438498
82.2083333333 0.00331120961346 -0.0104302885011 -0.243447080255 -0.725547790527 0.564449965954 -0.129027709365 1.34994566441 0.686651408672
82.2625 -0.00268899719231 -0.0119106415659 -0.5067897439 -0.528279006481 -0.396512567997 -0.139641717076 0.177279993892 0.369847178459
82.3166666667 -0.00881403125823 -0.00826808065176 -0.712554872036 -0.259009122849 -0.10018068552 -0.10659173876 -1.33187639713 -0.0322944074869
82.3708333333 -0.0100111234933 -0.00291400705464 -0.741541206837 0.182637482882 -2.51122140884 0.799725830555 -1.14962935448 -0.558848261833
82.425 -0.00898857507855 0.000537358399015 -0.484271556139 0.590001523495 0.298033028841 0.070792876184 0.448900669813 -0.14460965991
82.4791666667 -0.0057555064559 0.00254827318713 -0.0778627619147 0.756085395813 0.431980401278 0.0723013207316 0.667135775089 0.501910984516
82.5333333333 -0.004219555296 0.00176877679769 0.288093060255 0.696526646614 -1.56151330471 3.75926136971 -1.6722162962 2.09555649757
82.5875 -0.00408439571038 0.00132036255673 0.587095439434 0.482499808073 0.372220218182 0.292487412691 0.529534935951 -0.0302762594074
82.6416666667 -0.00618038605899 0.00211374601349 0.740963816643 0.13262976706 0.250302106142 0.0485731884837 0.0327958464622 -0.0243018660694
82.6958333333 -0.00530336331576 0.00536509789526 0.695423066616 -0.232982933521 -0.496163278818 0.623396992683 1.1974902153 -1.2147333622
82.75 -0.00364848901518 0.0075461184606 0.515785038471 -0.545783340931 0.840532779694 0.86514133215 1.68931460381 0.790151655674
