!Created with skrf (http://scikit-rf.org).
# GHz S RI R 50.0 
!freq ReS11 ImS11 ReS21 ImS21 ReS12 ImS12 ReS22 ImS22
60.0 0.074599198997 -0.144902735949 -0.798082947731 1.4693557024 -0.552358325278 0.166685257183 -0.743606830269 0.113671379775
60.0416666667 -0.0494491681457 -0.160118564963 0.0456460006535 1.70317363739 0.510222307964 0.878497541411 -0.807293691422 -0.953219625822
60.0833333333 -0.131994798779 -0.0857005119324 0.77735722065 1.38664889336 0.591740097743 0.0346955278582 -0.368544955161 -0.080089652795
60.125 -0.154638320208 0.0157609079033 1.2686355114 0.877080559731 0.365402545717 -0.402353173075 -0.293399815548 0.660921248523
60.1666666667 -0.102982752025 0.118064433336 1.51320111752 0.207142144442 0.558130080151 0.843458266139 0.0309812290735 -0.0601071011453
60.2083333333 0.0273153390735 0.15957121551 1.49168169498 -0.538326203823 -0.131575305939 -0.0818221615944 -0.140050733877 -0.733660363091
60.25 0.152424097061 0.0582678988576 1.00481963158 -1.21955192089 0.5916235863 0.0816765099433 0.413536131835 -0.387930449677
60.2916666667 0.125760689378 -0.112748943269 0.294655442238 -1.56068849564 -0.119905790193 0.472999242922 0.631712725161 0.0910973390731
60.3333333333 -0.0596129596233 -0.180987492204 -0.681133449078 -1.55607581139 0.718744085159 -0.276396443497 0.339249530149 0.388098573736
60.375 -0.196586742997 -0.0195099972188 -1.42651689053 -0.752932727337 -0.751387552072 0.866522483894 0.399942273739 -0.813486040923
60.4166666667 -0.116199225187 0.169928461313 -1.55686438084 0.244461968541 -0.727049090416 -0.899014505147 0.371818676905 -0.184745233061
60.4583333333 0.080877840519 0.188772454858 -1.13596653938 1.10393059254 -0.220879952347 0.920592946697 -0.492744804674 -0.202771612006
60.5 0.181284829974 0.0450358241796 -0.323680818081 1.519998312 -0.321694566192 0.530760367158 0.163421067334 -0.261463759237
60.5416666667 0.13008582592 -0.101055763662 0.511729300022 1.45053350925 -0.621557703437 -0.0344197821455 -0.803445114545 0.859930638195
60.5833333333 0.00606476748362 -0.143993631005 1.16642403603 1.11589074135 0.897176802522 0.694056572395 0.661017712979 0.0268833500614
60.625 -0.102666735649 -0.070402123034 1.70205521584 0.34110930562 -0.631906844774 0.81862079295 -0.00437714917896 -0.969414621314
60.6666666667 -0.100627236068 0.0469597578049 1.61852478981 -0.77048432827 -0.712319122752 0.945371523717 0.0644790358203 -0.842386986974
60.7083333333 -0.0264057591558 0.116702146828 0.952735304832 -1.46008074284 -0.362539619179 0.591983092088 0.462499581669 0.161458685325
60.75 0.093438513577 0.125568002462 0.0664343386889 -1.80111789703 -0.189246617871 -0.891028606046 0.0792929030959 -0.565808518602
60.7916666667 0.197021484375 0.0144976647571 -0.896939694881 -1.48297786713 0.641236074001 0.380934251475 -0.447811133196 0.0431333794299
60.8333333333 0.183240875602 -0.159754514694 -1.46077132225 -0.842944562435 0.2820270336 0.613996064946 -0.44744982985 0.112328702201
60.875 0.00278179137968 -0.277109622955 -1.66477322578 -0.0231211297214 -0.376396113412 0.0254781693153 -0.46291018045 -0.976940762724
60.9166666667 -0.223359137774 -0.183827280998 -1.43488681316 0.90977537632 0.722189535556 0.245480753467 -0.341800240198 0.870448066604
60.9583333333 -0.27613556385 0.0488610528409 -0.758828401566 1.51384544373 0.586938819141 -0.400627061789 0.297044970661 -0.786472545238
61.0 -0.124103993177 0.241034388542 0.150746449828 1.74086201191 -0.37591806388 -0.557880226394 0.112117678541 0.887684236943
61.0416666667 0.125987619162 0.200252041221 1.07884788513 1.39879071712 -0.752692799306 -0.185087225781 0.656173931686 0.0678246173982
61.0833333333 0.195895627141 -0.00705261249095 1.53064107895 0.696086525917 0.505937724001 0.531735251136 0.971516011115 -0.156268526608
61.125 0.07386764884 -0.150426626205 1.59300136566 -0.0682727769017 -0.740439173997 0.306188598448 -0.0290166657481 -0.0895190512576
61.1666666667 -0.0835167840123 -0.124821096659 1.31945729256 -0.722159147263 0.735166630884 -0.22501595153 0.770306895025 0.0111356494821
61.2083333333 -0.144420415163 -0.00274185440503 0.85960060358 -1.22926652431 0.10154568132 0.902019672929 0.738905539252 -0.526273444988
61.25 -0.102408267558 0.115110337734 0.141586154699 -1.53810489178 -0.558395474675 0.229514737268 0.633498965766 0.186182532746
61.2916666667 -0.000672774505801 0.16631616652 -0.677159428596 -1.41788852215 -0.647622579926 -0.975587687978 -0.891993285458 0.925375981511
61.3333333333 0.107458665967 0.134394288063 -1.33639490604 -0.811198830605 -0.726297591784 0.439066485056 -0.305183015781 -0.697925519046
61.375 0.173845663667 0.0346049740911 -1.6088809967 -0.0138639239594 -0.836079927934 0.749331492103 -0.371475690801 0.759124237563
61.4166666667 0.146584227681 -0.104813538492 -1.39850234985 0.771010816097 -0.86368332438 0.383739348798 0.395465063472 0.407759398054
61.4583333333 0.00102536077611 -0.182327985764 -0.843227267265 1.33674001694 0.555451948495 0.780309133512 0.563155339329 -0.568998943267
61.5 -0.156937152147 -0.0936297923326 -0.0701312050223 1.55384719372 -0.650943050908 -0.0323267104253 -0.15693774485 0.0252719492614
61.5416666667 -0.176104038954 0.101469576359 0.690246701241 1.38126718998 0.517619286107 -0.0103257057277 0.740541175184 0.620762172033
61.5833333333 0.00394094968215 0.234221249819 1.30496799946 0.854156911373 0.0775873942019 0.076043738315 -0.883065827842 -0.159346522285
61.625 0.217443138361 0.146572485566 1.54712581635 0.139197349548 0.167280814082 0.442574750796 0.311869367861 0.73583385829
61.6666666667 0.25759011507 -0.0854038670659 1.40823578835 -0.628172278404 0.72374177107 -0.280891741783 -0.234751961877 -0.776200827289
61.7083333333 0.0984184443951 -0.243048995733 0.896415174007 -1.23640918732 -0.58920527298 -0.719695212077 -0.803815763953 -0.466423439069
61.75 -0.0935217961669 -0.205736428499 0.0938242375851 -1.53710150719 0.927711927535 -0.136374356475 -0.858153478483 0.873810000616
61.7916666667 -0.169957369566 -0.0635732784867 -0.761033833027 -1.36557376385 -0.277917812502 -0.98532150931 0.065403633967 -0.399462620382
61.8333333333 -0.136121168733 0.0580128580332 -1.4172219038 -0.845037043095 0.54355132411 -0.523381063252 -0.888433124826 0.730785234927
61.875 -0.0454496741295 0.104918539524 -1.61634755135 -0.193245708942 0.479248985274 0.271641439414 -0.701145444137 -0.145528309919
61.9166666667 0.0410510823131 0.0857937559485 -1.50988292694 0.555396735668 0.934027781106 -0.414883872983 -0.786637244429 -0.977603882587
61.9583333333 0.093846924603 0.0119535950944 -0.980891942978 1.23864257336 -0.729019330338 0.036879862238 0.0996447387412 -0.912089529287
62.0 0.0676077604294 -0.0876359194517 -0.150898873806 1.51104307175 0.372322055631 0.131186705792 -0.7597081498 -0.561977450364
62.0416666667 -0.0369147025049 -0.13327421248 0.60274720192 1.3295686245 -0.905243264983 0.555499907624 -0.507388594735 0.982919331176
62.0833333333 -0.158125400543 -0.0712718740106 1.20762014389 0.964743256569 0.539952671052 -0.171472472622 0.371312078688 -0.0972265218395
62.125 -0.183212637901 0.108219712973 1.56632685661 0.224863633513 0.258510766535 0.498360048266 -0.307687309822 0.149157026114
62.1666666667 -0.0448952391744 0.224870637059 1.46418190002 -0.534041821957 -0.454258540682 -0.49671400776 0.602650777239 0.670907421098
62.2083333333 0.132483839989 0.184247031808 0.959687650204 -1.14975917339 -0.593749859425 0.94086210257 -0.131306921463 -0.0711828155092
62.25 0.200503990054 0.0161738991737 0.210318222642 -1.49649775028 0.151155319901 -0.835391246489 -0.191694647674 0.32446297547
62.2916666667 0.102734513581 -0.114612229168 -0.575635135174 -1.40174603462 -0.540793864214 0.247071738515 0.279485219845 -0.0382725422549
62.3333333333 -0.036349568516 -0.10658314079 -1.22230100632 -0.950789809227 0.93747692076 0.696947747138 -0.184514792418 -0.0262320042783
62.375 -0.0927042216063 0.00861296895891 -1.52757883072 -0.265019536018 -0.836750719532 -0.738136433905 -0.15798179454 -0.809107105725
62.4166666667 -0.0226295553148 0.0996301472187 -1.46697795391 0.582070767879 -0.367777961221 0.568444597664 0.670839392694 -0.634293037967
62.4583333333 0.0809201225638 0.0934250578284 -0.975156068802 1.25220787525 -0.578813198167 -0.420187933985 0.75016195306 0.17934945488
62.5 0.137205347419 0.0119431037456 -0.166223779321 1.56393098831 -0.957424929577 0.39431345093 -0.312011004126 0.637027882614
62.5416666667 0.123944289982 -0.077872119844 0.655017137527 1.39792513847 0.933300873393 -0.737990631673 -0.615061213536 0.798608755545
62.5833333333 0.0624245069921 -0.146881371737 1.25113964081 0.877909362316 0.939380207887 0.451692589513 -0.993873083906 0.194275035416
62.625 -0.0457542426884 -0.166545391083 1.49122786522 0.159487426281 0.974048207949 -0.582247347778 -0.746388441173 0.0931400198407
62.6666666667 -0.146727502346 -0.100015506148 1.34650814533 -0.548520863056 -0.0246663176801 0.307076702869 0.636118018 -0.650457006437
62.7083333333 -0.170070946217 0.0268729943782 0.895646631718 -1.09456729889 -0.079006336375 0.782790268212 -0.82108379845 -0.0645794783736
62.75 -0.0898732021451 0.129108518362 0.222370356321 -1.34152817726 -0.155334069067 -0.492717283038 -0.269209449476 0.522068649389
62.7916666667 0.0463231019676 0.130894944072 -0.530269861221 -1.28220844269 -0.546375860257 0.346148417717 -0.919470051433 0.69792634155
62.8333333333 0.132369562984 0.0196199193597 -1.11897730827 -0.902518868446 0.924291266973 0.389738188928 -0.334191058954 0.528010542967
62.875 0.0698481202126 -0.107783637941 -1.44596946239 -0.206008389592 0.0647805709581 -0.571710382092 -0.323499890034 0.958253025368
62.9166666667 -0.0736428052187 -0.117479681969 -1.38152337074 0.519358515739 0.546159519066 -0.303398945401 0.296800915194 0.584604511746
62.9583333333 -0.146991103888 0.00409439811483 -1.02580857277 1.17700397968 -0.0265204951301 0.957792442371 0.213741142053 -0.792564716995
63.0 -0.0843256041408 0.12403254956 -0.337558716536 1.5178091526 0.88501642496 0.465610437952 -0.929603876258 -0.0959461984703
63.0416666667 0.0435526408255 0.130761489272 0.486289232969 1.46147656441 -0.417716444276 0.0532320754128 0.801667683346 -0.803404347322
63.0833333333 0.113206028938 0.0407475791872 1.21272623539 1.01864981651 -0.456912299779 0.690189092107 -0.873544121331 0.133194044568
63.125 0.0820217132568 -0.0379904061556 1.47790694237 0.359467357397 0.612139952283 -0.497512125707 -0.516150277962 -0.140106991869
63.1666666667 0.025444265455 -0.0605938360095 1.40344214439 -0.360930323601 0.590737453981 -0.635799135317 0.312867231088 -0.795098556797
63.2083333333 -0.0221063345671 -0.0499563664198 1.10491752625 -0.917048692703 -0.807580188461 0.663806784294 -0.860812555143 -0.883825430148
63.25 -0.0480575636029 -0.00984425842762 0.629446148872 -1.29523694515 -0.163451927836 -0.429772060573 0.508883139453 0.0185859931319
63.2916666667 -0.0503632202744 0.0377958267927 -0.00566407106817 -1.47278571129 -0.469313354538 0.33664220872 0.806344426906 0.829401540364
63.3333333333 -0.00635397899896 0.0908322259784 -0.762741744518 -1.2781535387 -0.32239295124 -0.788034897402 -0.189498732484 -0.325446506642
63.375 0.0874126330018 0.0891176387668 -1.30751383305 -0.689252793789 0.588357733797 0.433168500751 -0.586707607782 -0.466108727921
63.4166666667 0.156686976552 -0.00804861541837 -1.46510958672 0.0325850509107 0.67614345331 0.0296132410651 -0.755680551649 0.409055522881
63.4583333333 0.109178341925 -0.147404700518 -1.32584989071 0.724439918995 -0.242317836149 0.633649193735 0.713103396691 -0.354486734565
63.5 -0.038207270205 -0.198274984956 -0.905365288258 1.27621746063 -0.529366609205 0.169033371109 0.93012351924 -0.462470240827
63.5416666667 -0.176257222891 -0.0968805626035 -0.134634971619 1.56192791462 0.788466871407 -0.369830201225 0.443656551194 -0.0643396776423
63.5833333333 -0.182269886136 0.0716861337423 0.72431230545 1.41146183014 -0.507941120335 -0.411468993942 0.927154431905 -0.0475160744567
63.625 -0.0470782779157 0.164262741804 1.38593196869 0.76212733984 -0.86994858459 -0.956797589738 -0.103872923116 -0.723032431736
63.6666666667 0.0777314975858 0.108739614487 1.5382475853 0.00588384876028 -0.163922509085 0.551136133169 0.32675829947 0.0768375362913
63.7083333333 0.104758359492 -0.000633421412203 1.38309562206 -0.67898696661 0.737107996582 -0.307602283606 -0.779906659464 -0.50258534103
63.75 0.043558832258 -0.074268579483 0.994619786739 -1.16332781315 0.772771907579 0.714102984509 -0.483597110733 -0.152557105201
63.7916666667 -0.0409050807357 -0.0733935236931 0.337448239326 -1.55891907215 0.225792579906 -0.906718103775 0.465909605768 -0.32703858296
63.8333333333 -0.0863085016608 -0.0139338793233 -0.370216459036 -1.54142451286 0.904594937045 0.252386628834 -0.352919099094 0.736674165242
63.875 -0.0703645646572 0.0476677566767 -1.01232230663 -1.18179297447 0.400462201054 0.207350975523 -0.180201845557 0.311517826205
63.9166666667 -0.035046454519 0.0780646726489 -1.479393363 -0.561704337597 -0.36976838291 -0.366797560468 0.971553317417 0.624152245838
63.9583333333 0.0112583516166 0.10653898865 -1.61055207253 0.227663233876 -0.262574568402 0.859248027878 0.83404079718 0.166866664156
64.0 0.0864959061146 0.0888451635838 -1.26301956177 0.886260390282 -0.0920189123966 -0.717076379459 -0.392959733056 -0.517018779786
64.0416666667 0.139752402902 -0.000755773158744 -0.673505723476 1.35387444496 0.268957468504 -0.150377541421 0.716455432522 0.305690978881
64.0833333333 0.0853239372373 -0.117916181684 0.126038104296 1.46863520145 -0.599838760033 0.640612989404 0.59581091119 -0.702633821036
64.125 -0.0595471858978 -0.131826132536 0.905219197273 1.1370575428 0.279070620029 -0.382147337727 0.845857918242 -0.495902993485
64.1666666667 -0.147786781192 -0.00426141731441 1.43323409557 0.489325344563 0.20107882092 0.0936490704537 0.284595928599 -0.528083140607
64.2083333333 -0.0785034745932 0.131973311305 1.56340324879 -0.238242939115 -0.837751777469 0.273431717657 0.753112683175 -0.021960186489
64.25 0.0643772557378 0.138836577535 1.32434082031 -0.892719507217 0.26383544351 -0.978324581337 0.583535240591 0.917127583364
64.2916666667 0.157516956329 0.0261227991432 0.785682439804 -1.36405432224 -0.577857652954 -0.408012001815 -0.830568720448 0.280538715775
64.3333333333 0.112805314362 -0.105050310493 0.100329816341 -1.55039000511 -0.556539640067 0.235467628923 -0.775154025442 0.939465633241
64.375 -0.0172065794468 -0.153358221054 -0.767528474331 -1.34630084038 -0.867367693985 0.748693676953 0.820208242579 0.426491599932
64.4166666667 -0.118191517889 -0.076359026134 -1.36630189419 -0.766251564026 0.565660403888 -0.745316689134 0.847167467097 0.822457571748
64.4583333333 -0.116196960211 0.0263522490859 -1.51685643196 0.000308198912535 -0.672598368224 0.416404360044 -0.0578177328824 0.564934421245
64.5 -0.0594003759325 0.0842242985964 -1.20314764977 0.612967193127 0.336917302503 -0.0373864143904 -0.218684872003 0.1861659572
64.5416666667 -0.000555497419555 0.0769005343318 -0.759584248066 1.08422148228 -0.376272261808 -0.216576905775 0.259122099132 0.963810520547
64.5833333333 0.036507692188 0.0671447962523 -0.185555100441 1.52492082119 0.936243170589 -0.864198593376 0.375022223849 0.189108662072
64.625 0.0933791324496 0.0389832779765 0.646239280701 1.56617355347 -0.514079006034 -0.220111606467 -0.759389338407 0.684850269602
64.6666666667 0.114400103688 -0.0551433041692 1.39459455013 1.09770822525 -0.796699555357 -0.712380102383 -0.11768742267 -0.00208967949816
64.7083333333 0.0317859277129 -0.14554604888 1.77071332932 0.317739784718 0.451724018762 0.26739518303 -0.550103509504 -0.262765575897
64.75 -0.0969838276505 -0.12418846041 1.67640936375 -0.439269810915 0.858733736573 -0.485428185985 -0.45599910115 -0.724430680358
64.7916666667 -0.159175723791 -0.00499271554872 1.2842977047 -1.0332711935 0.253054897585 -0.560752961295 0.720336955567 0.376953167402
64.8333333333 -0.0937851592898 0.118620015681 0.659470200539 -1.39736664295 0.749511214386 -0.732808654447 -0.892524115008 0.98142258949
64.875 0.0502902008593 0.138862803578 -0.167996451259 -1.56170368195 0.248480037968 -0.272706021385 -0.138964012167 0.489928828322
64.9166666667 0.122583121061 0.0212760809809 -0.949225246906 -1.19797158241 -0.966513500011 0.41182232134 -0.904660617321 0.247891234314
64.9583333333 0.0621376596391 -0.0781103149056 -1.24499583244 -0.59631550312 -0.794141215666 -0.654039708777 0.855306249454 -0.73424189099
65.0 -0.0365844592452 -0.084512591362 -1.43976342678 -0.0254251845181 0.964719393156 -0.827196233994 0.984046382221 0.625764064917
65.0416666667 -0.0958635061979 -0.014064851217 -1.41753172874 0.550681054592 -0.29470374386 -0.5785189506 0.682693831992 0.220528059953
65.0833333333 -0.0760606080294 0.0678490102291 -1.10945427418 1.05832231045 -0.0681666372292 0.995912727664 -0.968069814307 0.819045837477
65.125 -0.00848073512316 0.0960235446692 -0.49667057395 1.42422795296 0.797917086377 0.843854661251 0.819030321895 0.151568622175
65.1666666667 0.0488023161888 0.0699934959412 0.346996426582 1.43784368038 -0.453097069761 -0.808792112857 -0.371018591485 0.53549805194
65.2083333333 0.0682229697704 0.0329500846565 1.03445565701 1.11117577553 0.214991326911 -0.845177047584 0.550275753688 -0.471581308642
65.25 0.0710069388151 -0.00118720775936 1.38971745968 0.561841964722 0.149446237978 -0.161142272852 0.531497048426 -0.326560688157
65.2916666667 0.0632147192955 -0.0483760349452 1.54613018036 -0.169852480292 0.837525143651 -0.203674422436 0.585029520224 -0.678973529475
65.3333333333 0.0150886047632 -0.0891676470637 1.2989859581 -0.861424565315 -0.0277262469972 0.31611036318 -0.0955075657818 -0.00251740728268
65.375 -0.0648207142949 -0.076517559588 0.748961150646 -1.37530255318 0.086614172063 -0.24845105016 -0.654387085951 0.833753945085
65.4166666667 -0.107603788376 0.00864744093269 0.00326820556074 -1.55649149418 0.280988202579 0.646399372651 -0.582848904119 -0.453103718209
65.4583333333 -0.0556897707283 0.105335175991 -0.728594362736 -1.33517622948 -0.187737391733 -0.583260214827 0.169042687394 -0.919200822372
65.5 0.0627830922604 0.105650186539 -1.18915903568 -0.850999236107 -0.432449171595 0.890473766751 -0.231031902551 0.3490704758
65.5416666667 0.128278553486 -0.00114122382365 -1.50641036034 -0.249851062894 0.652195438636 0.543634291288 0.95844472945 -0.260503370779
65.5833333333 0.0793045684695 -0.108265168965 -1.53572440147 0.445150852203 0.0104308141425 -0.957090874467 -0.116127425205 0.630944553894
65.625 -0.0270877406001 -0.13297496736 -1.20223593712 1.13478219509 -0.577644824651 -0.587177664881 0.360819488847 0.95767922365
65.6666666667 -0.108519256115 -0.0603229440749 -0.480669975281 1.62412071228 0.227681540414 -0.445671573607 0.807899806358 0.683112745334
65.7083333333 -0.0951028168201 0.0306171514094 0.451636761427 1.65054607391 0.128008104885 -0.955160809367 0.835231038787 0.151338832472
65.75 -0.0362859070301 0.0693156272173 1.2443292141 1.28863286972 -0.196486080661 -0.140730359485 0.780961118852 -0.527435933946
65.7916666667 0.0164902042598 0.059835024178 1.64005422592 0.68560230732 0.420608515977 0.0340183689882 -0.935942494283 -0.163893727838
65.8333333333 0.0459165237844 0.0198250841349 1.7393475771 -0.108758978546 0.445825789328 -0.436875307871 -0.36671308469 -0.0376096655484
65.875 0.0414823368192 -0.0267050918192 1.48801660538 -0.871736109257 -0.298100744486 -0.47400632621 -0.500443499322 -0.283645734963
65.9166666667 0.00416994933039 -0.0605508163571 0.929580569267 -1.50309455395 -0.431822915443 -0.452248126988 -0.700292725581 0.878940767395
65.9583333333 -0.0569160021842 -0.0550007671118 0.00979516282678 -1.69283425808 0.0342142680849 -0.779067676611 -0.823673642769 -0.279042291834
66.0 -0.0897054597735 -0.00039646323421 -0.699263453484 -1.43922996521 -0.82080309092 -0.881983458883 0.602527354167 -0.117680780457
66.0416666667 -0.0783089101315 0.0629182085395 -1.24566626549 -0.982998788357 0.579161862667 0.975344994722 -0.409689524605 0.996103261253
