!Created with skrf (http://scikit-rf.org).
# GHz S RI R 50.0 
!freq ReS11 ImS11 ReS21 ImS21 ReS12 ImS12 ReS22 ImS22
75.0041666667 -0.0222104154527 0.00459395349026 -0.470072060823 -0.684280633926 0.0390840172768 -0.1173870489 -0.0707069933414 -0.0848432779312
75.0583333333 -0.019339799881 0.0123597122729 -0.783761322498 0.25228664279 -0.0718316882849 -0.185153543949 0.287072449923 -0.0808627307415
75.1125 -0.0153545606881 0.0176140014082 -0.0559059754014 0.792614936829 -0.761690080166 1.97444462776 1.36345791817 -1.5996273756
75.1666666667 -0.0106228366494 0.0232107657939 0.606487452984 0.48139628768 -0.539557635784 0.682690501213 -0.293021589518 -0.780666410923
75.2208333333 -0.00353526254185 0.0285248737782 0.731615245342 -0.214210540056 0.219096660614 0.111350737512 0.263857424259 0.706586182117
75.275 0.00770028820261 0.0316624641418 0.0361881777644 -0.753092825413 0.842658102512 0.295445501804 0.186463326216 0.106440544128
75.3291666667 0.0220465902239 0.0293425451964 -0.714566767216 -0.181046918035 0.118512958288 0.784942150116 0.492108643055 0.380462557077
75.3833333333 0.0351798832417 0.0187647081912 -0.438507854939 0.574996948242 -0.0570703372359 0.0319545902312 -0.0805255323648 -0.114618651569
75.4375 0.0415256246924 0.0019298522966 0.211256846786 0.671184539795 0.357983022928 -1.15796947479 -0.782906830311 -0.170443758368
75.4916666667 0.0384976826608 -0.0162369944155 0.673563718796 0.112664356828 0.376107662916 -0.172260835767 0.842275440693 -0.237064152956
75.5458333333 0.0281067099422 -0.0306984279305 0.249029919505 -0.645236253738 -1.48992884159 0.83910214901 0.473651260138 -0.484555006027
75.6 0.0120206605643 -0.0389912985265 -0.573487877846 -0.364864259958 0.0806647762656 0.577743768692 0.25042784214 0.409952014685
75.6541666667 -0.00494699412957 -0.0393640212715 -0.591580867767 0.278349488974 -0.145928770304 0.163425177336 -0.72790902853 0.361377567053
75.7083333333 -0.0193365700543 -0.0327415801585 -0.172421649098 0.635701298714 -1.43286049366 0.431899130344 -1.78224170208 -0.396722912788
75.7625 -0.0300206597894 -0.021321348846 0.502368152142 0.430052310228 0.155142351985 -0.00724921980873 0.00873906165361 -0.256207734346
75.8166666667 -0.0337515920401 -0.0063467361033 0.522354125977 -0.402984321117 0.205978170037 0.0793805494905 -0.418988674879 -0.170917332172
75.8708333333 -0.0305467229337 0.00754728028551 -0.177511185408 -0.633134365082 0.341237545013 -0.294763624668 -0.488691627979 -0.0699585452676
75.925 -0.0218533016741 0.015877880156 -0.623941898346 -0.232697427273 0.364081203938 1.11184978485 1.43553888798 0.100944750011
75.9791666667 -0.013716080226 0.0181686077267 -0.511367321014 0.397797852755 0.357146710157 0.371544778347 -2.20095324516 -0.200097158551
76.0333333333 -0.00758611224592 0.0194689296186 0.217642188072 0.60547286272 0.479089260101 -2.29167747498 0.0304828621447 -0.309927076101
76.0875 -0.00207709218375 0.0194311644882 0.645426988602 -0.0219129025936 0.182834759355 0.964221358299 0.471730589867 -0.016215633601
76.1416666667 0.00366775388829 0.0193857215345 0.329701721668 -0.557271063328 -0.671377837658 -5.02396011353 0.349540650845 0.682170748711
76.1958333333 0.00997459050268 0.0169409941882 -0.232514694333 -0.600878715515 -0.00518395658582 0.0368952602148 0.0431824475527 -0.0885012373328
76.25 0.0145485801622 0.0118153803051 -0.653009355068 -0.0723112002015 -0.273196548223 -0.0429219901562 -0.0906461179256 0.557464599609
76.3041666667 0.0170141905546 0.00416185520589 -0.262104868889 0.600490808487 -0.494908362627 -0.54045766592 -0.301133096218 -0.355880141258
76.3583333333 0.0139785045758 -0.00349197350442 0.450992286205 0.477226704359 0.446736514568 -0.230670824647 0.346073180437 -0.420525670052
76.4125 0.00741586787626 -0.00576139148325 0.632824242115 -0.0996151790023 0.120137549937 0.622053742409 -1.2190207243 0.195768028498
76.4666666667 0.00339014665224 -0.00277760718018 0.250471174717 -0.593020558357 0.0997941121459 0.118121907115 -0.218562915921 0.227926790714
76.5208333333 0.00477139372379 0.00204110238701 -0.472631156445 -0.435110926628 0.18545947969 -0.283685207367 0.27519223094 0.239018291235
76.575 0.0114377429709 0.0022671429906 -0.539572179317 0.344085156918 -1.09870111942 0.360673576593 -0.611607789993 0.189892396331
76.6291666667 0.016500422731 -0.00458046421409 0.115424804389 0.619131922722 -0.584965646267 -0.197745248675 -0.41100102663 -1.17954802513
76.6833333333 0.015404635109 -0.0145248575136 0.592213392258 0.199422180653 0.664256989956 -0.150697082281 -0.619532942772 -0.513913929462
76.7375 0.00756124639884 -0.0224047452211 0.455899834633 -0.446629673243 0.745105028152 0.0671281442046 0.0240279529244 -0.0759898945689
76.7916666667 -0.00416084844619 -0.0242351517081 -0.252588480711 -0.593571126461 15.3861179352 -3.45202088356 -8.40634155273 -9.59070587158
76.8458333333 -0.015253807418 -0.0197271164507 -0.638193547726 0.0183145496994 0.0482488386333 0.12096683681 -0.051480833441 0.117694661021
76.9 -0.0200387146324 -0.0104354638606 -0.242290332913 0.57495957613 -0.211155772209 -0.330473721027 0.511377811432 -1.34638702869
76.9541666667 -0.0201971419156 -0.00221437448636 0.398213684559 0.468943029642 -0.854256808758 -0.512351930141 0.465709388256 0.338772594929
77.0083333333 -0.0189086552709 0.00267397402786 0.587852954865 -0.154126107693 1.60207521915 -0.11234383285 -0.0511246398091 -0.998601794243
77.0625 -0.0188041031361 0.00730246957392 0.10405535996 -0.581016004086 0.0219408087432 -0.427245527506 0.0646104440093 -0.0837818384171
77.1166666667 -0.0186037607491 0.014816778712 0.524797022343 -0.292643666267 0.673932671547 0.87164324522 -0.958682715893 -0.495752483606
77.1708333333 -0.0130073595792 0.0242604296654 0.0507422201335 -0.60466247797 -0.277222126722 -0.476616233587 -0.235145226121 -0.656282842159
77.225 -0.000664186954964 0.0310346316546 -0.476602911949 -0.345632225275 0.179830238223 -2.91939735413 -1.03019297123 -1.58208334446
77.2791666667 0.0160137340426 0.0283394828439 -0.524639248848 0.267551541328 -0.211376935244 -0.3452732265 -0.625896394253 0.139428332448
77.3333333333 0.0287013631314 0.0160392075777 0.0323036685586 0.588097274303 -1.04872739315 0.165390565991 -0.32633382082 -0.642460644245
77.3875 0.0312652587891 -0.00155736436136 0.520195960999 0.26026391983 -0.23006528616 0.52653670311 1.21211493015 1.0000525713
77.4416666667 0.0231131725013 -0.0166880916804 0.509782314301 -0.303760647774 -0.196161270142 -0.192759662867 -0.274229675531 -0.78484493494
77.4958333333 0.00756317889318 -0.0222112461925 -0.0122215244919 -0.581906735897 0.485164701939 0.113669253886 -0.266987085342 0.0151631282642
77.55 -0.00485749077052 -0.0165996756405 -0.540201485157 -0.240806743503 0.159622654319 -0.283724367619 0.250621914864 -0.0242925193161
77.6041666667 -0.00824315659702 -0.00624628784135 -0.45469507575 0.385375380516 -0.124619714916 -1.17606270313 0.938193440437 -0.191166996956
77.6583333333 -0.00336632831022 0.00010048540571 0.0643224418163 0.595361351967 -1.49038374424 0.815806567669 0.398036837578 0.0135862799361
77.7125 0.00258381827734 -0.00174002733547 0.508187294006 0.294145047665 0.0857778266072 0.466312974691 -0.350189775229 0.435467392206
77.7666666667 0.00249655661173 -0.00822620559484 0.525864422321 -0.274874508381 -0.162016749382 0.310667514801 -0.748476028442 -0.664176821709
77.8208333333 -0.00485896226019 -0.0112612154335 0.00264804484323 -0.594534516335 -0.0193592198193 1.63187301159 0.202715352178 -0.723822176456
77.875 -0.0126843452454 -0.00612530764192 -0.498518198729 -0.34278601408 -0.194694086909 -1.34178054333 0.124554924667 -1.05311179161
77.9291666667 -0.0134514281526 0.00411132816225 -0.584580659866 0.163899227977 -0.0861821398139 -0.248700931668 -0.128019705415 0.288086026907
77.9833333333 -0.00570564996451 0.01090140827 -0.224507287145 0.558238625526 0.483685255051 0.0261266101152 -0.178359374404 -0.42234313488
78.0375 0.00453389482573 0.00930458493531 0.367566734552 0.482280611992 0.134713977575 0.0563238784671 1.81126594543 0.319957762957
78.0916666667 0.00936982780695 -0.00021376631048 0.607285320759 -0.0159371439368 -0.465872824192 -0.0812582150102 -0.339325368404 -0.0946997255087
78.1458333333 0.00410028034821 -0.00968281924725 0.386238723993 -0.489767968655 -0.85195094347 -0.747259378433 1.20882189274 -0.976728320122
78.2 -0.00749082956463 -0.0117864552885 -0.18613652885 -0.609904229641 0.0188943799585 -0.267299205065 0.464724689722 -0.0483938492835
78.2541666667 -0.0177100561559 -0.00306109548546 -0.621477007866 -0.101269796491 0.316346257925 -0.00849960371852 0.756402790546 -0.245235562325
78.3083333333 -0.0180127117783 0.011778768152 -0.392378568649 0.50581485033 0.409080564976 -0.247557893395 0.237037435174 -0.540538012981
78.3625 -0.00649305898696 0.0219605006278 0.171813011169 0.622548341751 -2.56047153473 -1.47460961342 -0.425689339638 -5.62562227249
78.4166666667 0.0068286228925 0.0207290835679 0.579814910889 0.287128359079 0.44149056077 0.128017008305 -0.268781542778 -0.238970428705
78.4708333333 0.0155862290412 0.0132560385391 0.564181089401 -0.361637800932 1.03810608387 2.29730057716 0.852461159229 1.83066177368
78.525 0.0175662823021 0.00315461284481 -0.138740763068 -0.683029592037 -0.512516736984 -0.317139625549 -0.027423299849 -0.133917748928
78.5791666667 0.0139319943264 -0.00332766887732 -0.667590081692 -0.178678631783 0.448552876711 0.520421564579 0.316730409861 0.131811782718
78.6333333333 0.0106330933049 -0.00497689144686 -0.554064452648 0.414733916521 2.42281961441 -1.34942686558 0.107859060168 -1.69511580467
78.6875 0.0111272428185 -0.00572540936992 0.0273207314312 0.651303112507 0.0626241415739 0.407548516989 0.288125395775 0.651331841946
78.7416666667 0.0124756582081 -0.0107518127188 0.592972040176 0.267339676619 0.180962875485 0.0101490030065 0.233827188611 0.202040717006
78.7958333333 0.0093835266307 -0.0198216028512 0.460571557283 -0.472146749496 0.101925112307 0.142828807235 1.28724336624 -0.169560909271
78.85 -0.0017670399975 -0.026810772717 -0.16901896894 -0.637275457382 -1.5180118084 -0.640491068363 -0.374664247036 0.201512977481
78.9041666667 -0.0187865011394 -0.0246186796576 -0.621653735638 -0.258668124676 -0.11000175029 -0.275874733925 -0.0758579969406 0.595995604992
78.9583333333 -0.0307376384735 -0.010399303399 -0.553670406342 0.389065563679 0.025309920311 0.336593329906 0.334978699684 -1.38603258133
79.0125 -0.0316154398024 0.00910276267678 0.088113874197 0.664883732796 0.824562251568 0.970633387566 -0.531457126141 -0.941675364971
79.0666666667 -0.0190965011716 0.0249205660075 0.608371734619 0.279471218586 -0.0374014489353 1.32923805714 1.79412484169 0.202318668365
79.1208333333 -0.000167604375747 0.0274418648332 0.602742433548 -0.295774877071 -0.357509255409 -0.413353234529 -0.12984444201 -0.134907633066
79.175 0.0135094132274 0.0178119819611 0.126752406359 -0.661900103092 0.574951052666 0.591640710831 1.32400667667 0.469127655029
79.2291666667 0.0167295429856 0.00351265515201 -0.487726598978 -0.46119004488 -1.05114066601 -1.0424002409 -1.26943528652 -0.982511758804
79.2833333333 0.0102071650326 -0.00658445153385 -0.649438738823 0.138133257627 -0.172916427255 -1.34165096283 0.816033840179 0.746198534966
79.3375 0.000473200518172 -0.00825058203191 -0.306257784367 0.613352119923 0.0365962833166 0.367340356112 -0.45401057601 -0.734514951706
79.3916666667 -0.00647388165817 -0.00216175429523 0.363210588694 0.689098358154 -0.924262821674 1.58892893791 0.254560858011 0.257578462362
79.4458333333 -0.00479388143867 0.00548187177628 0.769123256207 -0.0909510999918 0.583138525486 -0.328594833612 -0.267768532038 -0.110912255943
79.5 0.000819359323941 0.00787779409438 0.277794659138 -0.659927010536 -0.534391462803 0.185150027275 0.0114477556199 0.418731749058
79.5541666667 0.005208438728 0.00614125840366 -0.3133200109 -0.625231742859 0.0956469774246 1.40102052689 1.59388792515 -0.144420787692
79.6083333333 0.00695452885702 0.00240222527646 -0.683896064758 -0.160661771894 -0.518275439739 -0.707106769085 -0.8693125844 -0.883811056614
79.6625 0.00576189998537 -0.000461894145701 -0.537553608418 0.4703104496 0.35425144434 -0.257153987885 0.0803232640028 -0.145508825779
79.7166666667 0.00392356235534 -0.000789555720985 0.167420610785 0.698949337006 0.266495615244 0.0548611991107 0.107150018215 -0.342284351587
79.7708333333 0.00414526741952 0.000463784264866 0.703089177608 0.136335581541 0.344865739346 -0.045395180583 1.06436562538 -0.159218579531
79.825 0.00692489696667 0.000569275114685 0.431540489197 -0.571719884872 -0.149544596672 1.11104047298 0.410158544779 0.01105462946
79.8791666667 0.0100472224876 -0.00299806846306 -0.295610845089 -0.661906063557 -0.0272358562797 0.589423835278 0.388976961374 0.254338055849
79.9333333333 0.0102445445955 -0.00937827210873 -0.738654136658 -0.112022414804 -0.238932564855 0.0588760674 0.091888345778 0.556091666222
79.9875 0.00539124524221 -0.015962228179 -0.53548938036 0.496370464563 0.193397447467 0.169384539127 0.0426232628524 -0.196722313762
80.0416666667 -0.00450449297205 -0.0180675387383 0.0857637822628 0.708800017834 -0.159641489387 0.499526828527 -1.01598501205 1.90958273411
80.0958333333 -0.0118820015341 -0.0144650638103 0.633259177208 0.287864625454 2.7349088192 0.658024847507 -1.68507862091 1.77553200722
80.15 -0.0155335227028 -0.00827209930867 0.579433202744 -0.358736515045 0.156469091773 -0.900281250477 0.699906766415 0.417050302029
80.2041666667 -0.0162884984165 -0.00294194649905 0.0772577747703 -0.678280174732 -0.084759324789 -0.368773132563 -0.42502194643 0.0524323768914
80.2583333333 -0.0163010060787 0.00280880136415 -0.533505856991 -0.419093877077 -0.33709987998 -0.12145742029 0.519276738167 0.480315983295
80.3125 -0.0151529023424 0.00750847347081 -0.618891954422 0.334237396717 0.675715982914 0.657871246338 -0.426412910223 0.081827878952
80.3666666667 -0.0126941166818 0.0128270415589 -0.0328530073166 0.676968097687 -0.669670879841 0.223073303699 -0.235512509942 -1.037566185
80.4208333333 -0.00778554705903 0.0176578406245 0.550014853477 0.395639300346 -0.424447953701 -0.796619832516 0.575749576092 -0.62965285778
80.475 -0.000389370892663 0.0215655975044 0.628849685192 -0.238467484713 -0.395289510489 0.235534220934 0.0881456360221 -0.572016298771
80.5291666667 0.0101958662271 0.0205682404339 0.0165415145457 -0.67013245821 0.182911857963 0.517881810665 -0.238273724914 -0.271575510502
80.5833333333 0.0201617591083 0.0131934275851 -0.641310811043 -0.238117113709 -0.0125069692731 -0.410622686148 0.0578990578651 0.113471701741
80.6375 0.0235518272966 0.00131898024119 -0.496484875679 0.440939605236 -0.539061248302 0.29637914896 -1.03842329979 0.202730461955
80.6916666667 0.0204990655184 -0.0096030915156 0.0320762172341 0.643235445023 -0.497427940369 2.06489944458 -3.14803934097 1.20963978767
80.7458333333 0.011034226045 -0.0174983758479 0.558091163635 0.32351782918 -0.130832657218 -0.233250185847 0.400188565254 0.161429077387
80.8 0.000759783026297 -0.0169105008245 0.541114628315 -0.379573851824 2.20807981491 -0.639081954956 -0.313463717699 -0.748234272003
80.8541666667 -0.00624324614182 -0.0113038225099 -0.156465545297 -0.634209215641 -0.0130213778466 0.421931356192 0.295972585678 1.24075341225
80.9083333333 -0.00847834069282 -0.00515578826889 -0.632537782192 -0.202755555511 -0.538543760777 -0.333962410688 0.211605980992 -0.423340052366
80.9625 -0.00663093756884 0.000919561833143 -0.54120606184 0.357364326715 0.145899832249 0.20721128583 0.139342099428 -0.325896710157
81.0166666667 -0.00210458878428 0.00330674275756 -0.0152049455792 0.662105083466 0.611154675484 0.222036466002 0.0267244055867 -0.524808347225
81.0708333333 0.00182750134263 0.00201583746821 0.58457660675 0.324285954237 -0.983410954475 -0.0937961414456 -3.46572518349 -1.51625311375
81.125 0.0042566685006 -0.00159311189782 0.579718828201 -0.347296446562 -0.120520614088 -0.222671210766 -1.49219226837 -0.123179115355
81.1791666667 0.00363522395492 -0.00543286371976 0.0397743619978 -0.684034645557 4.0626244545 -5.19674730301 -1.73114001751 -3.6502995491
81.2333333333 0.000268679112196 -0.00879544392228 -0.510462164879 -0.450995862484 0.277805835009 -2.56105399132 -2.14037394524 3.04114675522
81.2875 -0.00486458372325 -0.00924781430513 -0.662363469601 0.165375739336 -0.871871769428 -0.153523206711 -0.774508297443 -0.318927526474
81.3416666667 -0.00676830811426 -0.00278671924025 0.658877491951 0.136756137013 0.302405446768 -0.24145321548 0.193712070584 -0.197897806764
81.3958333333 -0.00721375457942 -0.00335430004634 0.655520439148 -0.231814518571 0.103846430779 -0.243472546339 -0.113868325949 0.173137277365
81.45 -0.010032103397 -4.22385783168e-05 0.416522800922 -0.548667609692 0.696942865849 -0.580547511578 0.31526696682 -1.13610720634
81.5041666667 -0.00942645873874 0.00544430222362 0.0391788892448 -0.695386230946 0.994990170002 -0.529152035713 1.71604287624 -0.184530362487
81.5583333333 -0.00727771967649 0.00782708916813 -0.329298257828 -0.605302929878 -0.0631404295564 0.0134072583169 -0.508428752422 0.0347376540303
81.6125 -0.00736995972693 0.010439905338 -0.593482494354 -0.362039715052 0.385095626116 -0.0403034500778 -0.0293056648225 -0.0784147754312
81.6666666667 -0.00434474041685 0.0145081318915 -0.714203357697 0.00112849811558 0.245434895158 0.764616906643 0.206922456622 0.174475699663
81.7208333333 0.00244847172871 0.0147627824917 -0.611542403698 0.358227401972 -0.0524447374046 0.0798417702317 -0.299605309963 -0.244414016604
81.775 0.00771383196115 0.0129167102277 -0.338674247265 0.636846005917 -0.133110567927 2.35688781738 0.900886118412 -0.157346948981
81.8291666667 0.0115687130019 0.0110790841281 0.0368766821921 0.708486199379 -0.242990747094 -0.306473523378 0.083277925849 -0.0389976426959
81.8833333333 0.016910020262 0.00858053006232 0.406544744968 0.593809723854 0.380119562149 -0.606198966503 0.915940761566 -0.0518011264503
81.9375 0.0212460402399 0.000190808073967 0.651422023773 0.28745958209 0.977924704552 0.297043442726 0.224076017737 0.88230317831
81.9916666667 0.0185583345592 -0.00926728453487 0.711811840534 -0.0972202345729 0.557316184044 -0.44551923871 0.24734698236 0.20364561677
82.0458333333 0.0135805578902 -0.0141266975552 0.553136050701 -0.48355948925 -0.376781612635 0.221949845552 -1.14425516129 -0.426782488823
82.1 0.00731808505952 -0.0180200543255 0.166270717978 -0.711073219776 -0.231556102633 0.658405721188 0.54549908638 -0.299816399813
82.1541666667 -0.00172673002817 -0.0201340503991 -0.288426965475 -0.694334924221 0.107408963144 0.205475762486 0.452258855104 -0.227672249079
82.2083333333 -0.0128742447123 -0.0166296269745 -0.626725137234 -0.43651035428 0.146515712142 0.952433407307 0.000381350459065 -0.080304056406
82.2625 -0.0179145541042 -0.00691641448066 -0.722944498062 -0.119999431074 -0.00533957639709 0.347240179777 0.035550635308 1.12452316284
82.3166666667 -0.0156947933137 0.00247391150333 -0.724665820599 0.218168467283 -1.49105584621 0.671566843987 -0.372610092163 -0.491702526808
82.3708333333 -0.0100554488599 0.00783732067794 -0.485545605421 0.590203821659 -0.616898417473 0.760914623737 -0.0604570880532 0.426878362894
82.425 -0.00359824323095 0.00861417874694 -0.0343132764101 0.763124346733 -0.21669459343 -0.49108082056 -0.175334692001 -0.385747551918
82.4791666667 0.000523714814335 0.00645978469402 0.389511615038 0.650907874107 -0.889340698719 1.15047514439 0.0376882366836 0.541378974915
82.5333333333 0.00282121985219 0.00307669397444 0.648628592491 0.381832182407 -0.0505970194936 -0.755513072014 -0.168353483081 -0.46631026268
82.5875 0.00183851795737 0.000369178218534 0.757723629475 0.0332614034414 1.2268037796 0.17743678391 -0.111733347178 -0.169713392854
82.6416666667 0.000829016324133 -0.000216688669752 0.670852601528 -0.341373831034 1.17082357407 1.4579693079 -1.56668031216 1.57047939301
82.6958333333 -0.00105713575613 -0.0003279033117 0.41507178545 -0.605284154415 0.592909932137 -0.397562205791 -1.0216306448 0.261536478996
