!Created with skrf (http://scikit-rf.org).
# GHz S RI R 50.0 
!freq ReS11 ImS11 ReS21 ImS21 ReS12 ImS12 ReS22 ImS22
75.0041666667 -0.107299409807 0.565054178238 -0.0862880200148 0.407590180635 0.278921246529 0.539436817169 0.708291828632 0.364986717701
75.0583333333 0.230627804995 0.514337658882 0.367233872414 0.198828369379 -0.72344237566 -0.506228089333 -0.839827716351 0.73379534483
75.1125 0.458855330944 0.288923829794 0.306890308857 -0.263041734695 0.319143414497 0.253720134497 -0.142449632287 0.321023881435
75.1666666667 0.524158358574 -0.020905578509 -0.0465393513441 -0.388179093599 -0.00558949448168 0.490025907755 0.614173412323 -1.06893479824
75.2208333333 0.404303610325 -0.289056122303 -0.334634304047 -0.180277734995 0.803649842739 0.596018791199 0.915719628334 0.756665110588
75.275 0.166176661849 -0.435886144638 -0.272729337215 0.252348542213 1.74166178703 -0.245981633663 -1.86242258549 -0.24261033535
75.3291666667 -0.0938108637929 -0.428665071726 0.183804228902 0.306694179773 -0.0998689010739 0.174716919661 0.00398943014443 0.00491149583831
75.3833333333 -0.291637480259 -0.292214751244 0.343923479319 -0.0418683066964 -1.49658799171 0.621774494648 -0.587181150913 0.312762916088
75.4375 -0.378657817841 -0.0878257080913 0.164593398571 -0.293322354555 0.683795690536 -0.238527983427 0.293559759855 0.199875459075
75.4916666667 -0.347601860762 0.116751790047 -0.177537620068 -0.274828344584 0.371356219053 -0.328343838453 0.208168655634 -1.21692466736
75.5458333333 -0.229762777686 0.272827416658 -0.316107362509 0.114417940378 -0.329064041376 -1.00994253159 0.259095847607 -1.37157058716
75.6 -0.0449106842279 0.345696598291 0.0472039058805 0.33301910758 -0.771888077259 0.251903086901 0.229680672288 0.259079873562
75.6541666667 0.140558198094 0.31544482708 0.300366938114 0.134196519852 3.59675502777 3.52099180222 1.40677893162 -7.989361763
75.7083333333 0.281130611897 0.198797062039 0.303549706936 -0.146205291152 -0.197801887989 -0.123601831496 1.13718724251 0.740193009377
75.7625 0.352247059345 0.0184871312231 -0.00426994822919 -0.344880074263 1.55593943596 0.236476391554 -2.76939606667 -1.84895157814
75.8166666667 0.308363288641 -0.176979809999 -0.340778946877 -0.0633279234171 0.544642627239 1.20895397663 0.315431058407 -0.0290321484208
75.8708333333 0.166997030377 -0.323262482882 -0.180926829576 0.293352842331 0.274785220623 0.546120584011 -0.241227522492 -0.498085856438
75.925 -0.0312670953572 -0.355088084936 0.135686069727 0.323618173599 0.510789752007 -1.46164560318 -0.932888567448 -0.812717318535
75.9791666667 -0.194488093257 -0.283493191004 0.338350117207 0.0526589080691 0.0398050583899 0.294793903828 0.0689049735665 0.175703853369
76.0333333333 -0.32369530201 -0.155106559396 0.152700081468 -0.303984940052 -0.1419467628 0.532849669456 0.540243268013 -0.21076926589
76.0875 -0.364994943142 0.0375151373446 -0.243641152978 -0.238250270486 1.56130599976 0.0748307183385 1.44715416431 -0.173165753484
76.1416666667 -0.299025416374 0.224136292934 -0.335176497698 0.0793962031603 0.311404466629 0.170882791281 -0.257097959518 0.0583976954222
76.1958333333 -0.144316449761 0.348144441843 -0.144585698843 0.313607245684 0.441222041845 0.0926549583673 0.354185014963 0.33993986249
76.25 0.0427570305765 0.376943767071 0.219557315111 0.278724431992 0.519291222095 -0.490631818771 1.61937630177 -0.182663142681
76.3041666667 0.243273988366 0.308780312538 0.330653935671 -0.128937110305 -1.25213897228 -1.11120581627 0.921220541 0.970251858234
76.3583333333 0.373494595289 0.131015688181 0.00641292333603 -0.359823614359 0.0123245092109 -0.290893524885 0.442596703768 -0.248998016119
76.4125 0.383547544479 -0.0855260938406 -0.291431695223 -0.200238883495 -0.481842398643 1.12964832783 -0.53713452816 0.830610632896
76.4666666667 0.283974915743 -0.280340313911 -0.321000218391 0.145973369479 0.453637242317 0.647541284561 0.094167150557 -0.271444231272
76.5208333333 0.0987336039543 -0.37679451704 0.033088453114 0.348968714476 1.30302906036 -0.04479451105 -0.385412454605 0.570326209068
76.575 -0.114757314324 -0.366605550051 0.343272060156 0.0530972480774 0.167178213596 -0.186621114612 0.392900049686 0.484976887703
76.6291666667 -0.275967538357 -0.24544878304 0.171985402703 -0.29328045249 0.579635500908 -0.715931773186 0.324793994427 -0.280680596828
76.6833333333 -0.35450682044 -0.0682831779122 -0.168780609965 -0.286780864 -1.35163962841 0.266834825277 0.960293829441 0.402491688728
76.7375 -0.332535892725 0.115208461881 -0.339665561914 0.0208591464907 0.703162491322 0.570855140686 -0.485276401043 0.542073428631
76.7916666667 -0.223216474056 0.268940329552 -0.104109212756 0.328194737434 0.155581265688 0.173034876585 0.362457931042 0.0169469453394
76.8458333333 -0.0410801842809 0.359960138798 0.264634370804 0.213164940476 0.060177821666 -0.372094213963 0.320035547018 0.457435727119
76.9 0.160059303045 0.320074826479 0.295500904322 -0.149581566453 0.299438148737 0.0773633494973 0.371965408325 -0.319626390934
76.9541666667 0.311471551657 0.172024101019 -0.00294467969798 -0.327255636454 0.262932449579 0.0399177223444 0.803831517696 -0.262021750212
77.0083333333 0.351338535547 -0.0239600799978 -0.294747978449 -0.134318515658 0.0528670884669 0.420858919621 0.0203674323857 0.107472315431
77.0625 0.275197029114 -0.211617395282 -0.234636694193 0.20425978303 0.66353148222 0.850331783295 0.0627378746867 -0.0694051533937
77.1166666667 0.117634363472 -0.330200999975 -0.310345381498 -0.0519355461001 -0.0626026019454 -0.221384465694 0.727939367294 0.646419107914
77.1708333333 -0.0729672238231 -0.335081338882 -0.217276051641 0.229243189096 -0.358528614044 -0.256672501564 1.2269525528 -0.517219364643
77.225 -0.237792983651 -0.245448067784 0.0809302777052 0.295301944017 -2.40580487251 -0.433767676353 0.44811591506 0.478188276291
77.2791666667 -0.325374037027 -0.0749744847417 0.297505140305 0.0626851767302 -0.778521835804 0.169847682118 -0.566444456577 -0.189575612545
77.3333333333 -0.315196663141 0.104823358357 0.17820289731 -0.248066753149 -0.264954596758 -0.775826752186 0.0350076332688 0.149784490466
77.3875 -0.217554703355 0.249836117029 -0.127556875348 -0.274482339621 -0.238805532455 0.109418995678 -0.0562549158931 -0.087368696928
77.4416666667 -0.058444481343 0.332896500826 -0.3044064641 -0.0408893190324 0.0879036709666 0.106416337192 0.0855470150709 0.358163058758
77.4958333333 0.129429906607 0.3107829988 -0.182081460953 0.240941017866 0.856583833694 -0.362394064665 0.634941875935 0.256756395102
77.55 0.26884457469 0.199330165982 0.146651670337 0.270786941051 0.0284715499729 0.895651936531 0.643916606903 -0.0139969885349
77.6041666667 0.330250769854 0.032619446516 0.308590322733 -0.0176850836724 0.501556396484 0.347603470087 0.247395202518 0.0957868546247
77.6583333333 0.297107130289 -0.148306652904 0.156772017479 -0.261828243732 -0.729106962681 0.366820007563 -0.854990243912 0.101210147142
77.7125 0.175034478307 -0.28215777874 -0.116114497185 -0.274556607008 0.424169301987 0.0777457803488 0.382200419903 0.587038516998
77.7666666667 0.00997239351273 -0.3337007761 -0.296994954348 -0.0469048134983 0.00119121628813 -0.247985899448 0.0325172543526 0.0223331004381
77.8208333333 -0.164540320635 -0.285232961178 -0.178266718984 0.239969909191 1.67193377018 0.582891464233 2.16633892059 -0.285115450621
77.875 -0.288320988417 -0.151178345084 0.0952584370971 0.284393459558 -0.504451394081 0.361953288317 0.51588767767 0.596840977669
77.9291666667 -0.322851121426 0.022127782926 0.278350323439 0.109775528312 0.283759772778 -0.60307097435 -0.38325214386 0.223956346512
77.9833333333 -0.26137021184 0.180649206042 0.254287064075 -0.1515327245 -0.534887313843 -0.0804189443588 -0.103271380067 -0.454244554043
78.0375 -0.126763522625 0.287847548723 0.00146866228897 -0.298775821924 0.358546227217 0.206269070506 0.616064786911 -0.562210202217
78.0916666667 0.0500297471881 0.307655006647 -0.2395080477 -0.181177064776 -0.404513418674 -0.00608818745241 0.0495124682784 0.145006582141
78.1458333333 0.202936425805 0.234741941094 -0.300564169884 0.0724295377731 -0.182912766933 2.93656897545 1.01331579685 -0.227110475302
78.2 0.300542712212 0.0884636566043 -0.114124447107 0.29323336482 0.648491621017 0.439993232489 -0.0424465797842 -0.432343304157
78.2541666667 0.294256269932 -0.0934003666043 0.210402533412 0.232053458691 1.35858428478 -0.0731123760343 0.480778515339 0.283836275339
78.3083333333 0.186889857054 -0.24028237164 0.313092112541 -0.075166426599 -0.452450454235 -0.166430458426 -0.772864580154 0.476911872625
78.3625 0.0148199293762 -0.292146027088 0.123953104019 -0.298988252878 -0.160900950432 0.0732429996133 0.457502901554 -0.040605340153
78.4166666667 -0.131555885077 -0.237444490194 -0.138683244586 -0.289687335491 0.447685152292 -0.616015434265 -0.438595354557 -0.781972527504
78.4708333333 -0.22671239078 -0.13209156692 -0.332020282745 -0.0350303277373 0.493653148413 -0.443969637156 -0.304831266403 0.165796875954
78.525 -0.258806884289 0.0109831495211 -0.162842199206 0.30951783061 -0.329088896513 0.533892989159 -0.448599547148 -0.19338285923
78.5791666667 -0.209001734853 0.152137041092 0.202274292707 0.279466569424 -0.0740571320057 -0.286859720945 0.281061500311 0.559924781322
78.6333333333 -0.0851332098246 0.241834193468 0.344995319843 0.0150204850361 0.165485411882 -0.17973831296 0.235010713339 1.0458688736
78.6875 0.0617000535131 0.235814869404 0.199884578586 -0.259531229734 -1.10066866875 0.571532845497 0.553589880466 0.56097215414
78.7416666667 0.170782163739 0.156468629837 -0.140381976962 -0.301523655653 -0.471464335918 0.58195412159 -0.0820467546582 -0.29295656085
78.7958333333 0.223698332906 0.0386563166976 -0.341556936502 0.0282739698887 -0.425820678473 0.37781766057 0.186733290553 -0.683448016644
78.85 0.207960829139 -0.0821705758572 -0.152433201671 0.312649786472 0.692757844925 0.247958645225 -1.17890560627 0.95031017065
78.9041666667 0.126003503799 -0.180412977934 0.163232907653 0.32366886735 0.508784651756 0.0509164407849 0.750920116901 0.13864390552
78.9583333333 0.0114429034293 -0.210223004222 0.36727771163 0.0318725071847 -0.0343521013856 0.450447797775 -0.513360261917 0.965566694736
79.0125 -0.0997639372945 -0.180850788951 0.195284873247 -0.312608838081 0.899429023266 0.608440756798 1.0400840044 0.663096666336
79.0666666667 -0.175878867507 -0.0951212346554 -0.165986329317 -0.332955807447 0.0403400212526 0.578921079636 -0.515309393406 -0.0709272027016
79.1208333333 -0.185352623463 0.0136724514887 -0.367889016867 -0.0794786959887 -0.0429296270013 0.22445499897 -0.000445687561296 0.179317623377
79.175 -0.139921590686 0.100243605673 -0.285291314125 0.249835595489 -0.121390491724 0.591647863388 -0.306793898344 -0.446834087372
79.2291666667 -0.0603701211512 0.14865796268 0.0595994181931 0.374152570963 0.468633919954 0.111335068941 0.00701951654628 -0.155820444226
79.2833333333 0.0234079007059 0.146315187216 0.339778125286 0.159452989697 -0.123215772212 0.170714318752 -1.20034790039 0.554510831833
79.3375 0.0860552713275 0.107641026378 0.351418167353 -0.174590617418 -0.453339785337 0.167661264539 -0.245352983475 -0.868954598904
79.3916666667 0.125991642475 0.0321048237383 0.0699465274811 -0.447534263134 -3.33194351196 -1.39455962181 -0.769034981728 -1.77359652519
79.4458333333 0.104681141675 -0.0331322029233 -0.395246833563 -0.222303658724 0.26767244935 -0.518028616905 0.591949939728 -0.585501611233
79.5 0.0620843470097 -0.0642990246415 -0.360821217299 0.221472471952 -0.562277019024 0.647571623325 -0.166434064507 -0.164110183716
79.5541666667 0.023851916194 -0.0707625821233 -0.0573913641274 0.411618411541 0.894229054451 -2.64637732506 1.0615118742 -0.642430603504
79.6083333333 -0.0110881496221 -0.061058934778 0.287710905075 0.307382076979 -1.41514933109 -1.34384155273 0.750440776348 0.795689284801
79.6625 -0.0302674341947 -0.0382844284177 0.425946801901 -0.0604330599308 0.198538571596 -0.620577096939 -0.0144541328773 -0.710374414921
79.7166666667 -0.0317532718182 -0.016050921753 0.140575677156 -0.410230129957 0.799510538578 0.360434651375 -0.332771837711 0.331562459469
79.7708333333 -0.0261016692966 -0.00283435476013 -0.318948209286 -0.293318480253 -0.415264040232 -0.794112920761 0.285562723875 -0.0306238532066
79.825 -0.0170090589672 0.00231675384566 -0.40205258131 0.161952808499 0.892437934875 -0.345918238163 -0.491034775972 -1.73836815357
79.8791666667 -0.0129711469635 0.000143970959471 -0.048796929419 0.437999665737 0.244507357478 -0.462320566177 -0.200430467725 0.690352261066
79.9333333333 -0.0153651405126 -0.00271330657415 0.359012186527 0.283856958151 0.40810495615 0.317895531654 0.528195798397 0.108157388866
79.9875 -0.0237770564854 0.00209611002356 0.434659659863 -0.107542291284 1.2903637886 1.28223288059 -1.28249680996 0.478899180889
80.0416666667 -0.0266346782446 0.0190568603575 0.15870437026 -0.408292353153 -0.538952887058 1.54295349121 -0.10193143785 -3.00731229782
80.0958333333 -0.0176027249545 0.0353613086045 -0.262395590544 -0.335660010576 0.154740646482 -0.0686431154609 0.188650757074 -0.23697565496
80.15 0.00144923420157 0.0437692329288 -0.416679739952 0.0350587144494 -0.739574193954 0.50378125906 0.0955281555653 0.139596179128
80.2041666667 0.0248434282839 0.0426278188825 -0.226480454206 0.353278249502 0.168023571372 -0.770943045616 -0.0270219445229 0.152197793126
80.2583333333 0.0498508140445 0.0251884497702 0.185186028481 0.372528344393 -0.0870247036219 -0.179848358035 -0.3706792593 -0.506511926651
80.3125 0.0613940469921 -0.00585538242012 0.43283700943 -0.0267103221267 -0.174373224378 0.217966064811 0.886104106903 0.177430033684
80.3666666667 0.0510311387479 -0.0412628538907 0.188128948212 -0.373045414686 -0.112964548171 0.00685491180047 0.503161370754 0.0753324180841
80.4208333333 0.0227052792907 -0.0659103915095 -0.215150654316 -0.358405947685 2.59820580482 -1.56377482414 -0.210928872228 -0.78536760807
80.475 -0.0185141377151 -0.0761409029365 -0.41552194953 -0.0108351940289 0.975520789623 0.333610892296 0.0453313589096 0.426463007927
80.5291666667 -0.0601489059627 -0.056903924793 -0.161081179976 0.383411496878 0.234334722161 0.333149492741 -0.18793193996 -0.00641389936209
80.5833333333 -0.0882621407509 -0.0145552810282 0.321218907833 0.274872124195 0.388524472713 0.452895760536 -0.164237260818 0.219885841012
80.6375 -0.0875083059072 0.0373577028513 0.378188401461 -0.157733827829 0.368030935526 -4.45772027969 0.573135316372 0.555268764496
80.6916666667 -0.0591128505766 0.080974496901 0.10191295296 -0.381204128265 -0.123847424984 0.155667990446 0.173994407058 -0.598312616348
80.7458333333 -0.00843689311296 0.103577852249 -0.267459988594 -0.288438260555 0.206687942147 0.0679000988603 0.246721729636 0.100799314678
80.8 0.0414637625217 0.101261235774 -0.375092864037 0.130482062697 -0.0550908707082 0.465881079435 -0.314279079437 0.31751447916
80.8541666667 0.091901563108 0.0710262879729 -0.00917434040457 0.388607054949 -1.09353947639 0.467577457428 -0.271048516035 -0.101743802428
80.9083333333 0.121991597116 0.0172970592976 0.332262217999 0.209594920278 0.550669372082 3.15994215012 0.337917506695 2.26045560837
80.9625 0.118311949074 -0.0469866469502 0.359512865543 -0.126692578197 1.16084229946 -0.116108782589 0.398306548595 -0.222427979112
81.0166666667 0.0827903151512 -0.103420913219 0.0962096378207 -0.373714596033 0.489210426807 0.129020601511 0.179724738002 -0.585907876492
81.0708333333 0.0207233708352 -0.133767142892 -0.289498239756 -0.25761321187 1.4498488903 0.107578672469 0.430195391178 -0.20510712266
81.125 -0.0527354329824 -0.125285580754 -0.372549831867 0.125395268202 0.0623601675034 -0.24098674953 -0.809213221073 0.824369072914
81.1791666667 -0.105970978737 -0.0885666683316 -0.101766973734 0.381033658981 -0.163735881448 -0.0897226855159 -0.506003022194 -0.190408751369
81.2333333333 -0.137088239193 -0.0276532303542 0.24097302556 0.307088702917 0.293903589249 0.568685829639 -0.275973469019 0.0575096718967
81.2875 -0.132270365953 0.0417175479233 0.389775812626 -0.0294282082468 -1.3468401432 0.160810232162 -0.218811959028 0.276546776295
81.3416666667 -0.0966795161366 0.0922409370542 -0.355930358171 -0.137536630034 -0.93390673399 1.56624996662 -0.564077377319 -0.163931682706
81.3958333333 -0.0414279066026 0.131128430367 -0.381858319044 0.0739657878876 5.24096775055 6.30574607849 -13.3679380417 -1.23139214516
81.45 0.0267307776958 0.136762827635 -0.27149733901 0.271340280771 0.170998007059 -0.0132721625268 0.214065611362 -0.26437574625
81.5041666667 0.0933558940887 0.104796990752 -0.0703909397125 0.379464566708 -0.725741922855 -0.0199975986034 -0.176390230656 0.473131120205
81.5583333333 0.128649905324 0.0399707481265 0.140965983272 0.349835187197 0.580420076847 -0.297050982714 -0.154319956899 0.376950442791
81.6125 0.123540990055 -0.0256868898869 0.300268262625 0.228311628103 0.131582945585 0.102659285069 -0.008455876261 0.071476303041
81.6666666667 0.0978595688939 -0.077132627368 0.385150313377 0.0347248837352 0.703888297081 0.409448236227 -0.509532988071 -0.0833812355995
81.7208333333 0.049988374114 -0.11864348501 0.345493495464 -0.166035190225 0.0744445100427 -0.221053436399 0.374989748001 -0.934434235096
81.775 -0.0182103496045 -0.130977928638 0.203156217933 -0.328159570694 0.475041627884 -0.292644798756 0.104020491242 -0.0988235771656
81.8291666667 -0.0762396603823 -0.103903748095 -0.00130531773902 -0.378860265017 -1.75224220753 0.13933211565 -0.133040547371 -1.51489770412
81.8833333333 -0.116954915226 -0.0571391507983 -0.207146331668 -0.324806898832 0.43368268013 0.261379152536 0.700333237648 0.413411319256
81.9375 -0.129790753126 0.0131534356624 -0.34400087595 -0.154287815094 -0.131432279944 0.859201550484 -0.183530643582 0.679411530495
81.9916666667 -0.106042645872 0.0783705636859 -0.370249629021 0.0567291304469 0.0690374001861 0.793732702732 -2.11004900932 -1.5353025198
82.0458333333 -0.0526779405773 0.125053927302 -0.27499371767 0.260048568249 0.357176303864 -0.119134455919 0.728682637215 0.120661258698
82.1 0.0144119169563 0.137184783816 -0.0627534240484 0.3684900105 0.369422912598 -0.332573890686 0.0206486023962 -0.0814023464918
82.1541666667 0.0857376307249 0.116149030626 0.174491405487 0.332507044077 -0.0957916527987 -0.220742404461 -0.162266880274 -0.0883255526423
82.2083333333 0.139918982983 0.0591948665679 0.327219933271 0.179588347673 -0.387172371149 0.596491754055 -0.127372860909 1.01621365547
82.2625 0.156056806445 -0.0195700004697 0.350551009178 0.0130970189348 1.09862625599 -0.28714594245 -0.671633839607 -0.733403027058
82.3166666667 0.127642154694 -0.098554417491 0.323198795319 -0.150476977229 0.0957329049706 -0.211192652583 0.26640984416 -0.0854499191046
82.3708333333 0.0594497695565 -0.153409048915 0.176299616694 -0.301891773939 1.87594640255 0.302058964968 -0.699151158333 0.0882310122252
82.425 -0.0241779554635 -0.162102982402 -0.0427557379007 -0.33869472146 -1.59989750385 -0.739881753922 1.41226899624 -0.18731276691
82.4791666667 -0.103250436485 -0.130953237414 -0.220824420452 -0.248971566558 -0.808723092079 0.560058176517 -0.187635526061 0.109462015331
82.5333333333 -0.16016240418 -0.0637741312385 -0.307182312012 -0.106279417872 0.156002268195 0.371708273888 0.748307287693 -0.277147591114
82.5875 -0.174136161804 0.0233431681991 -0.3159763515 0.0564939044416 0.227574601769 -0.112094953656 -0.0257397312671 -0.419438332319
82.6416666667 -0.141418665648 0.103674933314 -0.234358370304 0.202691867948 0.581961870193 0.279879897833 -0.522194743156 -0.158481761813
82.6958333333 -0.0729566216469 0.158679842949 -0.0983903408051 0.277819007635 -0.439702928066 -0.433467060328 0.0767947584391 0.24448351562
82.75 0.0162640176713 0.175604879856 0.0505168922246 0.289429724216 2.0803437233 0.885786235332 1.97580015659 -1.91984176636
82.8041666667 0.0981360152364 0.141737118363 0.196640208364 0.202707901597 6.95706224442 -2.98551464081 4.87554550171 -1.61412990093
82.8583333333 0.151280373335 0.076457798481 0.262066721916 0.0443981438875 -0.192299976945 0.266889452934 -0.0562679171562 -0.4088729918
