!Created with skrf (http://scikit-rf.org).
# GHz S RI R 50.0 
!freq ReS11 ImS11 ReS21 ImS21 ReS12 ImS12 ReS22 ImS22
60.0 0.131923153996 -0.0841797292233 -1.16029477119 1.18055057526 -0.237444414914 -0.315329508714 -0.567175441024 -0.327791997306
60.0416666667 0.0249950978905 -0.167122155428 -0.361269116402 1.64245820045 0.238740074913 -0.444037448717 0.713584580667 0.656358526137
60.0833333333 -0.0943548902869 -0.137919127941 0.465500354767 1.49679100513 0.255873821206 -0.448748743429 -0.363367139554 -0.323458514861
60.125 -0.161939755082 -0.0433093719184 1.08075153828 1.07169938087 -0.748714692223 -0.516303372431 0.677754641359 0.574314126062
60.1666666667 -0.147917091846 0.0792427137494 1.45372915268 0.414899379015 0.201808888695 -0.819526024119 -0.277263237162 0.878917905126
60.2083333333 -0.0274881180376 0.164641782641 1.52854943275 -0.373849451542 -0.0393233680664 -0.609782947035 0.490184579645 -0.606962687428
60.25 0.126280367374 0.0901989415288 1.07881593704 -1.14175081253 -0.240997745365 0.634292273196 -0.51680951512 0.378090558059
60.2916666667 0.123159825802 -0.0862592309713 0.337691217661 -1.54252660275 -0.431168769823 0.949688319692 0.450063349397 0.792206276179
60.3333333333 -0.058261923492 -0.159687817097 -0.689478754997 -1.53952896595 -0.545679483783 -0.477158698763 -0.379661707349 -0.244159458559
60.375 -0.185142979026 0.00856312830001 -1.44680345058 -0.683225989342 0.680311306584 0.571945970123 0.297336015524 -0.487204262037
60.4166666667 -0.0757059976459 0.187149018049 -1.51682627201 0.367206215858 0.670499008852 0.832390481758 -0.642555184929 0.866078936754
60.4583333333 0.128928095102 0.160854652524 -0.989244818687 1.21314668655 -0.822746724655 -0.481447000242 -0.167889957823 0.114656904899
60.5 0.188413769007 -0.014736559242 -0.0925410613418 1.53128015995 0.45282291152 0.849427663917 0.708608909913 0.297423269383
60.5416666667 0.0840560495853 -0.143384903669 0.756147265434 1.31753194332 0.823782400639 0.71720285163 -0.66892576576 -0.338190383935
60.5833333333 -0.0580866746604 -0.133876934648 1.36682283878 0.829760670662 0.970279075946 0.882154585267 -0.0542568119208 0.562283896904
60.625 -0.12910759449 -0.00876599457115 1.72112703323 -0.0992963090539 0.072263058378 0.779801223671 -0.825115487133 -0.771570042521
60.6666666667 -0.0620215907693 0.103567384183 1.31740748882 -1.19840347767 -0.273046834059 0.228547036868 0.57021900007 -0.352661499887
60.7083333333 0.0517280586064 0.120922528207 0.422831088305 -1.67649245262 0.567093566955 0.787012100802 -0.578391638852 0.732355320018
60.75 0.162479430437 0.0506260506809 -0.57660394907 -1.68365192413 -0.0745905303339 0.296993787721 0.459123379584 -0.434719497277
60.7916666667 0.168705374002 -0.116757743061 -1.37799751759 -1.00180447102 0.400903364198 -0.880045601386 -0.167212819921 -0.442743573287
60.8333333333 0.030108211562 -0.234480708838 -1.65071415901 -0.16072525084 -0.176145191385 0.443084935277 -0.282964684093 -0.630026120601
60.875 -0.179387643933 -0.178239762783 -1.49192297459 0.703718602657 -0.765432152413 0.708092897669 -0.61714562758 -0.704468240222
60.9166666667 -0.245076417923 0.0563691481948 -0.830767512321 1.48637354374 -0.0158977877653 0.968182564897 0.165572627909 0.679301189074
60.9583333333 -0.0699837654829 0.225498721004 0.137590155005 1.70071363449 -0.918104521087 -0.0354957079866 0.973498136166 0.246527222069
61.0 0.172027856112 0.158181890845 1.09729838371 1.35924804211 0.869515778957 -0.569005579455 -0.566045906024 0.716645317104
61.0416666667 0.205720096827 -0.101523220539 1.66889178753 0.489964991808 0.338741078727 0.0640859665426 -0.693206212701 0.709359078756
61.0833333333 0.0100231301039 -0.224554792047 1.5997800827 -0.365669101477 0.796369652186 -0.509613654711 -0.417852609683 0.754543886384
61.125 -0.171905249357 -0.126137331128 1.17673230171 -1.02684175968 0.60790087496 -0.638092627373 0.242073714109 -0.55737830795
61.1666666667 -0.185634285212 0.0562614649534 0.529675900936 -1.39150393009 -0.729853893342 -0.712857070606 -0.763992755542 -0.198199352183
61.2083333333 -0.064639724791 0.159359022975 -0.203059747815 -1.48137807846 -0.526003134113 0.558689109417 -0.49737579744 0.874759799072
61.25 0.0733413621783 0.136704519391 -0.991898536682 -1.18222081661 0.146260640846 -0.571982777545 0.485912108164 -0.416790869475
61.2916666667 0.130851238966 0.0388703122735 -1.49747955799 -0.454838991165 0.469747741301 -0.143607118876 0.504501699506 -0.733636172534
61.3333333333 0.103187099099 -0.0640065297484 -1.46577882767 0.484744668007 -0.79586826597 0.416709021768 0.701555042109 0.752274743569
61.375 0.000590174167883 -0.115752525628 -1.00025367737 1.22122359276 0.369160591372 0.332300219695 0.925276442063 0.895994774055
61.4166666667 -0.117381416261 -0.0557446032763 -0.23023378849 1.55159294605 0.148355713317 -0.827252959019 -0.171360741458 0.133953969029
61.4583333333 -0.133490219712 0.104463376105 0.589778959751 1.45399188995 0.387827862727 -0.696674266116 0.598900550885 -0.196085937173
61.5 0.0218795295805 0.215287283063 1.26916265488 0.915935099125 -0.162525624541 0.191468819236 -0.218790395678 -0.59855304736
61.5416666667 0.228348076344 0.127505227923 1.55572378635 0.102452047169 -0.24140815792 0.315473768076 -0.891808189438 0.851759351913
61.5833333333 0.254869610071 -0.127937585115 1.35582923889 -0.756319463253 -0.93691943412 -0.52010610413 0.864907763894 0.697221278485
61.625 0.0498703382909 -0.268881201744 0.783097565174 -1.30021095276 -0.446584028239 -0.610310750125 0.138605204336 0.218137483088
61.6666666667 -0.165058881044 -0.168665587902 0.0249717254192 -1.49725854397 -0.341281771343 0.600869358415 -0.85504049263 -0.230418228677
61.7083333333 -0.188687130809 0.043250285089 -0.755987107754 -1.29305231571 -0.536359672622 0.387215882321 0.706984613511 -0.0921848507523
61.75 -0.0360775850713 0.150678679347 -1.38633000851 -0.651610612869 0.273585708098 0.120914901167 0.168827876245 -0.0598030061392
61.7916666667 0.109079666436 0.0833309516311 -1.54205405712 0.271231412888 -0.15248410298 0.596596187669 0.137692945634 0.657988191508
61.8333333333 0.137461781502 -0.0527249537408 -1.21728503704 1.11483049393 -0.419302880245 0.933803524806 -0.934926415823 -0.712344839237
61.875 0.0617400184274 -0.14253808558 -0.587559521198 1.50828647614 0.3953109975 -0.231999073175 -0.00787867679181 0.262993809433
61.9166666667 -0.0524191781878 -0.156024068594 0.214011147618 1.57626855373 0.492306003112 0.900990218993 0.737635012952 0.777688358364
61.9583333333 -0.153389558196 -0.0869411975145 1.01818621159 1.17740345001 -0.204468185638 -0.53674714547 0.242501587839 0.279559727758
62.0 -0.173278287053 0.0475610420108 1.4456217289 0.384585738182 0.236213585374 -0.347690804892 -0.295675518328 -0.691534739455
62.0416666667 -0.0822270587087 0.152484610677 1.38340473175 -0.42029568553 0.112532880142 0.261103968238 0.186318157565 -0.499608340213
62.0833333333 0.0656862854958 0.146935686469 1.07057130337 -1.10843229294 0.871116518024 0.716788661814 -0.106562383523 -0.529728272252
62.125 0.145894035697 -0.000609134498518 0.304608106613 -1.54974138737 -0.588450080842 -0.952129181686 -0.6155483743 -0.353593556745
62.1666666667 0.0399239435792 -0.120376169682 -0.515815079212 -1.45850431919 0.504055357514 0.674400318582 -0.0577772859445 -0.243912780466
62.2083333333 -0.113562718034 -0.0748837068677 -1.15488648415 -0.917587697506 0.385671253809 -0.203830332859 -0.435921451196 -0.927989496829
62.25 -0.140364587307 0.0913385823369 -1.47905337811 -0.136193186045 0.791797263381 0.627136970562 -0.589930495828 0.155764840962
62.2916666667 -0.00214230478741 0.192210689187 -1.34130132198 0.670375823975 0.628246759059 0.640333192313 -0.762591458555 0.28929438172
62.3333333333 0.158810764551 0.132999375463 -0.808818519115 1.31625986099 0.33738209335 0.455784063964 -0.0408059096328 0.940351766008
62.375 0.195669651031 -0.038262527436 -0.0311372186989 1.55070781708 0.00951358927753 -0.174421078242 0.801943762241 -0.504301125716
62.4166666667 0.083797968924 -0.14125418663 0.84746915102 1.32255899906 -0.539991533167 0.92682380128 0.377936172589 0.87154996171
62.4583333333 -0.0331408455968 -0.120815679431 1.42205071449 0.659993767738 0.844816667336 0.880425199216 -0.906893673381 -0.21221550733
62.5 -0.0799021422863 -0.0363054275513 1.52907621861 -0.229392081499 -0.316621234193 -0.17359546068 -0.373939210264 -0.375464548958
62.5416666667 -0.0536606162786 0.0364802479744 1.13680624962 -1.00322818756 -0.117290285049 -0.934304582627 -0.921235374578 0.541480564349
62.5833333333 0.0116351880133 0.0680244341493 0.443328291178 -1.44006299973 0.585672028155 -0.820415776661 -0.201425051057 0.277272896402
62.625 0.0900565758348 0.0331330560148 -0.351183265448 -1.44699990749 0.258164975169 0.542492381611 0.366519200366 -0.0369899200331
62.6666666667 0.111409887671 -0.0684688389301 -1.01086699963 -1.04653859138 0.40838533101 -0.402434108533 -0.938204222391 -0.93883577561
62.7083333333 0.0279149953276 -0.158610358834 -1.37137269974 -0.366859018803 -0.962777348824 -0.52672009309 0.118758752412 -0.596540270562
62.75 -0.106543317437 -0.142476662993 -1.29491448402 0.402327686548 0.0933665868448 -0.119919347966 0.104066095831 0.576102620152
62.7916666667 -0.179686352611 -0.0105137620121 -0.859587013721 1.06513404846 -0.524266438385 0.710359153415 0.748661646611 0.197255871955
62.8333333333 -0.11700309813 0.140486180782 -0.213209450245 1.39255952835 -0.473302814835 0.802250401562 -0.299046183201 -0.647487550302
62.875 0.0442402474582 0.154086560011 0.571314513683 1.31633067131 0.82635712583 -0.417149489794 -0.462096744963 0.906598936619
62.9166666667 0.132757887244 0.0275614932179 1.1820551157 0.861807882786 -0.285005206193 0.695941492838 -0.290886039572 0.382193796031
62.9583333333 0.056364107877 -0.0941619724035 1.55143451691 0.148447886109 0.466848893998 0.2720863894 0.320649493656 0.367086872385
63.0 -0.0720957890153 -0.0746322721243 1.40148150921 -0.666521966457 0.561949459929 0.450262985645 -0.96144873461 0.281232814559
63.0416666667 -0.10159124434 0.0418809093535 0.80074763298 -1.30013906956 0.949758484863 0.599813699565 0.0824738000013 0.618393751335
63.0833333333 -0.0169688127935 0.117300137877 -0.0441123358905 -1.56052911282 -0.0648352697146 0.604244532668 -0.850684705516 0.333489883201
63.125 0.0691899210215 0.0872272253036 -0.740507364273 -1.30545496941 -0.612014430089 0.341402911634 0.423037423872 -0.86802143557
63.1666666667 0.0969742387533 0.0200317390263 -1.23394989967 -0.729695320129 -0.955562090863 -0.632251472231 -0.517138305722 0.979419773035
63.2083333333 0.0818395987153 -0.0407890491188 -1.42154586315 -0.0806134864688 0.031959628271 -0.540168709551 -0.371471161456 0.0249096961806
63.25 0.0299456901848 -0.0741824433208 -1.31566953659 0.564529776573 -0.43968428905 -0.444973343224 -0.813547220597 0.0811071275049
63.2916666667 -0.0296277813613 -0.0732829123735 -0.913482189178 1.14873290062 -0.241943296206 -0.682149716587 0.228138721479 0.0682817733647
63.3333333333 -0.0823955237865 -0.0157839097083 -0.148220062256 1.47351431847 0.777636577415 0.383335530162 -0.08014513965 0.918495753142
63.375 -0.0587921142578 0.0775646418333 0.679922103882 1.29609370232 -0.0207146359487 -0.529292600199 0.071720927398 -0.512115845768
63.4166666667 0.0522103719413 0.109515845776 1.22934305668 0.756856799126 0.675508878066 0.670814748175 0.472139309529 -0.352374567511
63.4583333333 0.151502639055 0.0112215075642 1.48503160477 0.0716185495257 -0.618158714633 -0.437126836871 0.0560709228005 0.837968808304
63.5 0.119449064136 -0.138539418578 1.40327262878 -0.649461686611 -0.0679327415808 0.0521346179162 -0.729497465091 0.242357535753
63.5416666667 -0.0470765903592 -0.193279847503 0.842014551163 -1.3119430542 0.137732342427 0.687127447229 0.379614320619 -0.204804269442
63.5833333333 -0.192300871015 -0.082780815661 -0.0456895306706 -1.57970666885 -0.523892251248 -0.150622761723 0.46033554166 0.0685431514722
63.625 -0.167015269399 0.0976651534438 -0.964649260044 -1.24120807648 -0.934253339191 -0.771063146684 -0.909249647273 -0.655235516497
63.6666666667 -0.0240961182863 0.154549241066 -1.41597247124 -0.5607021451 0.274701872771 -0.865091279604 -0.298071514197 0.97547127885
63.7083333333 0.0835511311889 0.0897793322802 -1.51241183281 0.170153841376 0.28967793728 -0.852499443306 0.858536859098 0.301803473778
63.75 0.0910245254636 -0.0120452260599 -1.28957128525 0.790286898613 0.167957331827 -0.836875973714 0.888513821925 0.800318777478
63.7916666667 0.0261829737574 -0.0680937319994 -0.750601768494 1.38957703114 0.314487906656 -0.627204859424 0.367045912239 -0.414907591877
63.8333333333 -0.0443786531687 -0.0476688407362 -0.0193000249565 1.57076966763 0.669204902664 0.254491573005 -0.557754537027 -0.0500826561086
63.875 -0.0619874633849 0.0102097438648 0.729854106903 1.35859727859 0.743582735643 -0.978846497008 0.754633491522 0.628086973372
63.9166666667 -0.0443135090172 0.0498254708946 1.34201979637 0.811084210873 -0.00706293824627 -0.826837105941 0.699058798553 -0.608985596198
63.9583333333 -0.0117059247568 0.089910171926 1.61233198643 0.0123206544667 0.103872309588 0.239054657997 0.663620468504 -0.476232763333
64.0 0.0638090968132 0.0926130563021 1.34371721745 -0.731378555298 -0.556395045389 -0.265386684733 -0.296580697607 -0.818805780043
64.0416666667 0.13151936233 0.0140120927244 0.775380730629 -1.28346335888 0.647634335243 -0.637461601168 -0.0636751609441 0.138396505007
64.0833333333 0.089063771069 -0.109868340194 -0.0519325099885 -1.46092164516 -0.065811304434 0.298053362784 -0.292724687931 0.140994891713
64.125 -0.059945486486 -0.130429565907 -0.879629075527 -1.14209187031 0.705254406147 0.593654884886 0.484919494611 -0.250581629171
64.1666666667 -0.149921298027 0.00587921775877 -1.42696595192 -0.460262954235 0.414092555975 0.294413216272 -0.455798730812 -0.198616290018
64.2083333333 -0.0649810507894 0.145516708493 -1.53139948845 0.309161454439 0.48312967352 0.591935972287 -0.963057833965 0.380720723737
64.25 0.088329359889 0.133979275823 -1.23240530491 0.984447062016 0.338805684806 -0.970605735216 0.637905717068 -0.764288387279
64.2916666667 0.165848851204 -0.00216298736632 -0.622858405113 1.42865228653 -0.926063129792 -0.444612905574 0.0789695282899 0.0941597542791
64.3333333333 0.0888667628169 -0.128203615546 0.122781962156 1.53722548485 0.741714597393 -0.966949762168 -0.377834201614 -0.251427723939
64.375 -0.0559856407344 -0.13934533298 0.988107144833 1.17929160595 -0.434899198656 0.824905866348 -0.184259975748 -0.442498564947
64.4166666667 -0.12758474052 -0.0301344674081 1.48353564739 0.456520020962 0.293041293436 0.139772982877 0.643314669246 -0.321316359884
64.4583333333 -0.084822691977 0.064451649785 1.45520198345 -0.363864213228 0.18736162664 -0.153125677077 -0.553865655836 0.242612881163
64.5 -0.00825565960258 0.0887293964624 0.980656325817 -0.905595779419 -0.0826122445165 0.908444191174 0.193625319797 0.461183105984
64.5416666667 0.0374365225434 0.053391084075 0.39389193058 -1.24811291695 0.413820233077 -0.0401445122469 -0.688778881246 -0.392546846141
64.5833333333 0.0614730156958 0.0231710802764 -0.325577050447 -1.4865039587 -0.143431795883 -0.898205718818 0.473273861491 0.234217077714
64.625 0.0837332159281 -0.0361737906933 -1.16174542904 -1.21874690056 -0.42887938423 -0.938302581108 -0.747387686154 0.239562497495
64.6666666667 0.0291521828622 -0.117619045079 -1.70741772652 -0.456583380699 0.311570566987 -0.374744550107 0.0553821809672 -0.302839743397
64.7083333333 -0.0971592068672 -0.112159498036 -1.72733747959 0.467938840389 -0.26014895411 0.0752830811653 0.404544658666 -0.300058271491
64.75 -0.158582448959 0.00895513594151 -1.27432858944 1.14888739586 -0.620632452986 -0.159497983163 -0.766535740732 -0.454710237152
64.7916666667 -0.0896239355206 0.130724415183 -0.614541530609 1.50392925739 0.837623744474 0.0145983634075 -0.000913727896118 0.429976894558
64.8333333333 0.0556986071169 0.136605024338 0.139372184873 1.51746702194 0.145820529972 -0.284417443189 0.486470370292 0.472635243954
64.875 0.143247500062 0.0116126602516 0.96669024229 1.22042095661 -0.297949698975 -0.0994223254432 -0.55919273944 -0.0924635288767
64.9166666667 0.060619931668 -0.109982222319 1.45246064663 0.453282535076 0.360768514214 -0.518750823383 -0.787726825427 0.757612769226
64.9583333333 -0.0619397349656 -0.0876144096255 1.34768950939 -0.258246153593 0.537658729618 0.085376906215 -0.72488627655 0.0432929030441
65.0 -0.100122742355 0.0109984083101 1.13321006298 -0.863428175449 0.611503230206 0.341895724571 -0.587742931075 0.756505652231
65.0416666667 -0.0454828627408 0.0894684791565 0.722046256065 -1.31446361542 -0.500227811311 0.763090716205 0.961574069412 0.499324395827
65.0833333333 0.0389982573688 0.0874433070421 0.12700766325 -1.50922095776 -0.921856273828 0.451453110351 0.392002239684 -0.100105365832
65.125 0.0763905793428 0.0262016616762 -0.611929357052 -1.36532866955 0.569202868935 -0.0440859660866 0.514426580562 -0.563260332629
65.1666666667 0.0558839887381 -0.0289158709347 -1.26031970978 -0.760418713093 -0.107464232859 -0.606229220929 -0.98573126174 -0.227353116978
65.2083333333 0.0210566967726 -0.0459827296436 -1.51255977154 0.00657525472343 0.329526872499 0.163541450165 -0.769166535553 0.489465633571
65.25 -0.0117025403306 -0.044737983495 -1.32706511021 0.684784293175 0.787408142054 -0.466951515874 0.991094072893 0.404655953887
65.2916666667 -0.0503457039595 -0.0262649226934 -0.82897400856 1.30624806881 -0.909654706489 0.44844708648 0.00718435359884 0.460093842206
65.3333333333 -0.0701820775867 0.0300209149718 -0.0858122333884 1.54080986977 -0.350830887404 -0.841527607487 -0.6814860355 0.841467738595
65.375 -0.0248512532562 0.0974018871784 0.685647130013 1.38021922112 -0.793882271684 -0.159862089995 0.124411129495 0.739975601187
65.4166666667 0.0759302973747 0.0976698771119 1.27034854889 0.847788751125 -0.871885445871 0.00429989873797 0.292328591156 -0.407028559504
65.4583333333 0.146033585072 -0.00168130150996 1.4963568449 0.0946370363235 0.853175302818 0.986511598515 0.945024479878 -0.355067311989
65.5 0.0859567150474 -0.121647834778 1.33052873611 -0.591808855534 -0.642718592165 -0.150932747275 0.971555782838 -0.458763012568
65.5416666667 -0.0546598210931 -0.13188739121 0.933284699917 -1.21298694611 0.669387720991 0.0480823998267 -0.799794238068 -0.205491520877
65.5833333333 -0.125426694751 -0.0283340234309 0.26541364193 -1.57404386997 0.933417790513 0.591799595646 0.178854916961 0.762131763945
65.625 -0.0811243057251 0.0716291591525 -0.546526670456 -1.54169523716 -0.12592268739 -0.830246654243 -0.903709510105 -0.519943227631
65.6666666667 0.0215394068509 0.0834378525615 -1.29674589634 -1.04600071907 -0.448101085467 0.691684166581 0.888506972503 -0.322796485008
65.7083333333 0.0697590857744 0.0118943210691 -1.67722177505 -0.167621076107 0.584975372898 0.829008889783 -0.678149950414 -0.462524453353
65.75 0.0437322854996 -0.0538673810661 -1.61280190945 0.739679515362 -0.158641954023 -0.16467776422 0.243839352092 -0.503592137927
65.7916666667 -0.0134251657873 -0.0756346657872 -1.13787901402 1.35477876663 -0.0502033304872 -0.430753689157 0.864067124576 0.0935115529628
65.8333333333 -0.0677336007357 -0.048487637192 -0.352519780397 1.70124328136 -0.00825719507309 -0.00210593467906 -0.842280479658 0.654785593542
65.875 -0.0901789367199 0.00598441436887 0.505164980888 1.6412268877 0.183771659269 0.00332804066209 -0.531989468414 -0.971191972145
65.9166666667 -0.0707073137164 0.0643281415105 1.2822715044 1.19639968872 -0.501826433161 0.734365375562 0.216423819631 -0.856689453567
65.9583333333 -0.00520908739418 0.0949791222811 1.64801037312 0.284620523453 -0.357945943051 -0.45082135548 -0.475278549691 0.106033384016
66.0 0.0547735802829 0.0582695007324 1.49917161465 -0.485875427723 0.131170815334 0.158956824794 0.834047622896 0.278633475876
66.0416666667 0.0680320262909 -0.00453884387389 1.10152888298 -1.1107634306 0.776851162243 0.1836768224 -0.425498958935 0.852563276101
